CITIFILE A.01.01
#Momentum: B.12.00.024 (*) built: Jan 14 2016 
#Momentum Date and Time: Sat Nov 18 16:22:59 2017

NAME Momentum.SP

#  mode: MW    project: proj    reference: S_50

#eesof Port[1] P1
#eesof Port[2] P2
#eesof Port[3] P3
#eesof Port[4] P4

CONSTANT NBR_OF_PORTS 4

CONSTANT NORMALIZATION 1

VAR freq MAG 7

DATA S[1,1] RI
DATA S[1,2] RI
DATA S[1,3] RI
DATA S[1,4] RI
DATA S[2,1] RI
DATA S[2,2] RI
DATA S[2,3] RI
DATA S[2,4] RI
DATA S[3,1] RI
DATA S[3,2] RI
DATA S[3,3] RI
DATA S[3,4] RI
DATA S[4,1] RI
DATA S[4,2] RI
DATA S[4,3] RI
DATA S[4,4] RI
DATA S_50[1,1] RI
DATA S_50[1,2] RI
DATA S_50[1,3] RI
DATA S_50[1,4] RI
DATA S_50[2,1] RI
DATA S_50[2,2] RI
DATA S_50[2,3] RI
DATA S_50[2,4] RI
DATA S_50[3,1] RI
DATA S_50[3,2] RI
DATA S_50[3,3] RI
DATA S_50[3,4] RI
DATA S_50[4,1] RI
DATA S_50[4,2] RI
DATA S_50[4,3] RI
DATA S_50[4,4] RI
DATA S_Z0[1,1] RI
DATA S_Z0[1,2] RI
DATA S_Z0[1,3] RI
DATA S_Z0[1,4] RI
DATA S_Z0[2,1] RI
DATA S_Z0[2,2] RI
DATA S_Z0[2,3] RI
DATA S_Z0[2,4] RI
DATA S_Z0[3,1] RI
DATA S_Z0[3,2] RI
DATA S_Z0[3,3] RI
DATA S_Z0[3,4] RI
DATA S_Z0[4,1] RI
DATA S_Z0[4,2] RI
DATA S_Z0[4,3] RI
DATA S_Z0[4,4] RI
DATA GAMMA[1] RI
DATA GAMMA[2] RI
DATA GAMMA[3] RI
DATA GAMMA[4] RI
DATA Z0[1] RI
DATA Z0[2] RI
DATA Z0[3] RI
DATA Z0[4] RI
DATA PORTZ[1] RI
DATA PORTZ[2] RI
DATA PORTZ[3] RI
DATA PORTZ[4] RI

VAR_LIST_BEGIN
	 2000000000
	 2111111111
	 2333333333
	 2555555556
	 2666666667
	 2833333334
	 3000000000
VAR_LIST_END

BEGIN
	 0.489980911,	 0.80202624
	 0.730523216,	 0.590341323
	 0.844842798,	-0.197261847
	-0.592779722,	-0.371237581
	-0.617431056,	 0.50857285
	 0.0489791141,	 0.898268543
	 0.517142209,	 0.754571132
END
BEGIN
	-0.0710008565,	-0.0552824466
	-0.0329732216,	-0.0056180908
	 -0.00137112887 ,	 0.000215479082 
	 -0.00124403957 ,	 -0.000114674865 
	 -0.00541674608 ,	 0.00137870882 
	-0.0166551808,	 0.0138957139
	-0.0244378263,	 0.0526062337
END
BEGIN
	 0.000716727676 ,	 -0.00164204693 
	 9.98880166e-005 ,	 -0.00200705628 
	 -0.00187589682 ,	 -0.00295634523 
	 -0.00614456565 ,	 0.000385248529 
	 -0.00474102672 ,	 0.00325643177 
	 -0.00241091128 ,	 0.00420323775 
	 -0.00108685384 ,	 0.0046678443 
END
BEGIN
	 -0.000235183751 ,	 0.000818065855 
	 -0.000196674392 ,	 0.00100497896 
	 0.00058943738 ,	 0.00156657902 
	 0.0024450309 ,	 -0.000104481011 
	 0.00159339021 ,	 -0.00136876585 
	 0.000421474213 ,	 -0.00166311896 
	 -0.000214415133 ,	 -0.00200991374 
END
BEGIN
	-0.0710008565,	-0.0552824466
	-0.0329732216,	-0.0056180908
	 -0.00137112887 ,	 0.000215479082 
	 -0.00124403957 ,	 -0.000114674865 
	 -0.00541674608 ,	 0.00137870882 
	-0.0166551808,	 0.0138957139
	-0.0244378263,	 0.0526062337
END
BEGIN
	-0.847886448,	 0.0291183655
	-0.661437177,	 0.612338368
	-0.039880874,	 0.946233596
	 0.388440054,	 0.876417161
	 0.547367391,	 0.786551349
	 0.740888572,	 0.592681833
	 0.870213147,	 0.275960578
END
BEGIN
	 0.00412423519 ,	 -0.000906810831 
	 0.00247442016 ,	 -0.00173256137 
	 0.000609506709 ,	 -0.00134677135 
	 -0.000114250494 ,	 -0.000768853133 
	 -0.000335605898 ,	 -0.000526668832 
	 -0.000580845729 ,	 -0.000123649993 
	 -0.000571158082 ,	 0.000546373132 
END
BEGIN
	 0.00252184922 ,	 -0.000884967105 
	 0.00123117892 ,	 -0.00118848657 
	 -2.63991834e-005 ,	 -0.000605164448 
	 -0.000448749125 ,	 -7.63784319e-005 
	 -0.000560513999 ,	 0.000130604175 
	 -0.000655333616 ,	 0.000428762389 
	 -0.000541419372 ,	 0.000781320741 
END
BEGIN
	 0.000716727676 ,	 -0.00164204693 
	 9.98880166e-005 ,	 -0.00200705628 
	 -0.00187589682 ,	 -0.00295634523 
	 -0.00614456565 ,	 0.000385248529 
	 -0.00474102672 ,	 0.00325643177 
	 -0.00241091128 ,	 0.00420323775 
	 -0.00108685384 ,	 0.0046678443 
END
BEGIN
	 0.00412423519 ,	 -0.000906810831 
	 0.00247442016 ,	 -0.00173256137 
	 0.000609506709 ,	 -0.00134677135 
	 -0.000114250494 ,	 -0.000768853133 
	 -0.000335605898 ,	 -0.000526668832 
	 -0.000580845729 ,	 -0.000123649993 
	 -0.000571158082 ,	 0.000546373132 
END
BEGIN
	 0.976745653,	-0.19574315
	 0.974220227,	-0.20658662
	 0.968758155,	-0.228291577
	 0.962753804,	-0.250031781
	 0.959551325,	-0.260936368
	 0.954463289,	-0.277353804
	 0.949107939,	-0.293656828
END
BEGIN
	 -0.000112616113 ,	 -9.39033741e-005 
	 -0.000133476889 ,	 -0.000102060983 
	 -0.000179919312 ,	 -0.000110322146 
	 -0.000223354887 ,	 -0.00011512071 
	 -0.000245345172 ,	 -0.000113816125 
	 -0.000266756245 ,	 -0.000110326305 
	 -0.000293472238 ,	 -9.90573787e-005 
END
BEGIN
	 -0.000235183751 ,	 0.000818065855 
	 -0.000196674392 ,	 0.00100497896 
	 0.00058943738 ,	 0.00156657902 
	 0.0024450309 ,	 -0.000104481011 
	 0.00159339021 ,	 -0.00136876585 
	 0.000421474213 ,	 -0.00166311896 
	 -0.000214415133 ,	 -0.00200991374 
END
BEGIN
	 0.00252184922 ,	 -0.000884967105 
	 0.00123117892 ,	 -0.00118848657 
	 -2.63991834e-005 ,	 -0.000605164448 
	 -0.000448749125 ,	 -7.63784319e-005 
	 -0.000560513999 ,	 0.000130604175 
	 -0.000655333616 ,	 0.000428762389 
	 -0.000541419372 ,	 0.000781320741 
END
BEGIN
	 -0.000112616113 ,	 -9.39033741e-005 
	 -0.000133476889 ,	 -0.000102060983 
	 -0.000179919312 ,	 -0.000110322146 
	 -0.000223354887 ,	 -0.00011512071 
	 -0.000245345172 ,	 -0.000113816125 
	 -0.000266756245 ,	 -0.000110326305 
	 -0.000293472238 ,	 -9.90573787e-005 
END
BEGIN
	 0.97675724,	-0.195723884
	 0.974230198,	-0.206565429
	 0.96877168,	-0.228265518
	 0.962772673,	-0.250012578
	 0.95956507,	-0.260918659
	 0.954473843,	-0.277331261
	 0.949120058,	-0.293627867
END
BEGIN
	 0.489980911,	 0.80202624
	 0.730523216,	 0.590341323
	 0.844842798,	-0.197261847
	-0.592779722,	-0.371237581
	-0.617431056,	 0.50857285
	 0.0489791141,	 0.898268543
	 0.517142209,	 0.754571132
END
BEGIN
	-0.0710008565,	-0.0552824466
	-0.0329732216,	-0.0056180908
	 -0.00137112887 ,	 0.000215479082 
	 -0.00124403957 ,	 -0.000114674865 
	 -0.00541674608 ,	 0.00137870882 
	-0.0166551808,	 0.0138957139
	-0.0244378263,	 0.0526062337
END
BEGIN
	 0.000716727676 ,	 -0.00164204693 
	 9.98880166e-005 ,	 -0.00200705628 
	 -0.00187589682 ,	 -0.00295634523 
	 -0.00614456565 ,	 0.000385248529 
	 -0.00474102672 ,	 0.00325643177 
	 -0.00241091128 ,	 0.00420323775 
	 -0.00108685384 ,	 0.0046678443 
END
BEGIN
	 -0.000235183751 ,	 0.000818065855 
	 -0.000196674392 ,	 0.00100497896 
	 0.00058943738 ,	 0.00156657902 
	 0.0024450309 ,	 -0.000104481011 
	 0.00159339021 ,	 -0.00136876585 
	 0.000421474213 ,	 -0.00166311896 
	 -0.000214415133 ,	 -0.00200991374 
END
BEGIN
	-0.0710008565,	-0.0552824466
	-0.0329732216,	-0.0056180908
	 -0.00137112887 ,	 0.000215479082 
	 -0.00124403957 ,	 -0.000114674865 
	 -0.00541674608 ,	 0.00137870882 
	-0.0166551808,	 0.0138957139
	-0.0244378263,	 0.0526062337
END
BEGIN
	-0.847886448,	 0.0291183655
	-0.661437177,	 0.612338368
	-0.039880874,	 0.946233596
	 0.388440054,	 0.876417161
	 0.547367391,	 0.786551349
	 0.740888572,	 0.592681833
	 0.870213147,	 0.275960578
END
BEGIN
	 0.00412423519 ,	 -0.000906810831 
	 0.00247442016 ,	 -0.00173256137 
	 0.000609506709 ,	 -0.00134677135 
	 -0.000114250494 ,	 -0.000768853133 
	 -0.000335605898 ,	 -0.000526668832 
	 -0.000580845729 ,	 -0.000123649993 
	 -0.000571158082 ,	 0.000546373132 
END
BEGIN
	 0.00252184922 ,	 -0.000884967105 
	 0.00123117892 ,	 -0.00118848657 
	 -2.63991834e-005 ,	 -0.000605164448 
	 -0.000448749125 ,	 -7.63784319e-005 
	 -0.000560513999 ,	 0.000130604175 
	 -0.000655333616 ,	 0.000428762389 
	 -0.000541419372 ,	 0.000781320741 
END
BEGIN
	 0.000716727676 ,	 -0.00164204693 
	 9.98880166e-005 ,	 -0.00200705628 
	 -0.00187589682 ,	 -0.00295634523 
	 -0.00614456565 ,	 0.000385248529 
	 -0.00474102672 ,	 0.00325643177 
	 -0.00241091128 ,	 0.00420323775 
	 -0.00108685384 ,	 0.0046678443 
END
BEGIN
	 0.00412423519 ,	 -0.000906810831 
	 0.00247442016 ,	 -0.00173256137 
	 0.000609506709 ,	 -0.00134677135 
	 -0.000114250494 ,	 -0.000768853133 
	 -0.000335605898 ,	 -0.000526668832 
	 -0.000580845729 ,	 -0.000123649993 
	 -0.000571158082 ,	 0.000546373132 
END
BEGIN
	 0.976745653,	-0.19574315
	 0.974220227,	-0.20658662
	 0.968758155,	-0.228291577
	 0.962753804,	-0.250031781
	 0.959551325,	-0.260936368
	 0.954463289,	-0.277353804
	 0.949107939,	-0.293656828
END
BEGIN
	 -0.000112616113 ,	 -9.39033741e-005 
	 -0.000133476889 ,	 -0.000102060983 
	 -0.000179919312 ,	 -0.000110322146 
	 -0.000223354887 ,	 -0.00011512071 
	 -0.000245345172 ,	 -0.000113816125 
	 -0.000266756245 ,	 -0.000110326305 
	 -0.000293472238 ,	 -9.90573787e-005 
END
BEGIN
	 -0.000235183751 ,	 0.000818065855 
	 -0.000196674392 ,	 0.00100497896 
	 0.00058943738 ,	 0.00156657902 
	 0.0024450309 ,	 -0.000104481011 
	 0.00159339021 ,	 -0.00136876585 
	 0.000421474213 ,	 -0.00166311896 
	 -0.000214415133 ,	 -0.00200991374 
END
BEGIN
	 0.00252184922 ,	 -0.000884967105 
	 0.00123117892 ,	 -0.00118848657 
	 -2.63991834e-005 ,	 -0.000605164448 
	 -0.000448749125 ,	 -7.63784319e-005 
	 -0.000560513999 ,	 0.000130604175 
	 -0.000655333616 ,	 0.000428762389 
	 -0.000541419372 ,	 0.000781320741 
END
BEGIN
	 -0.000112616113 ,	 -9.39033741e-005 
	 -0.000133476889 ,	 -0.000102060983 
	 -0.000179919312 ,	 -0.000110322146 
	 -0.000223354887 ,	 -0.00011512071 
	 -0.000245345172 ,	 -0.000113816125 
	 -0.000266756245 ,	 -0.000110326305 
	 -0.000293472238 ,	 -9.90573787e-005 
END
BEGIN
	 0.97675724,	-0.195723884
	 0.974230198,	-0.206565429
	 0.96877168,	-0.228265518
	 0.962772673,	-0.250012578
	 0.95956507,	-0.260918659
	 0.954473843,	-0.277331261
	 0.949120058,	-0.293627867
END
BEGIN
	-0.155935874,	 0.920755197
	 0.256343923,	 0.872890885
	 0.659949366,	-0.351016554
	-0.812168359,	-0.204467004
	-0.839233638,	 0.30192547
	-0.54965116,	 0.737171681
	-0.0993908523,	 0.89152835
END
BEGIN
	-0.0372653803,	-0.057528756
	-0.0245334555,	-0.0173618843
	 -0.00161173308 ,	 -9.52970678e-005 
	 -0.000919416879 ,	 -0.00030519338 
	 -0.00447854596 ,	 -0.00103922521 
	-0.0236274237,	 0.00240101616
	-0.0659271299,	 0.0527066835
END
BEGIN
	 0.00150120132 ,	 -0.0022991155 
	 0.000687539844 ,	 -0.00339924483 
	 -0.00475190891 ,	 -0.00466476537 
	 -0.0063413745 ,	 0.00208045746 
	 -0.00504761398 ,	 0.0034806976 
	 -0.00385967232 ,	 0.00476897302 
	 -0.00274761723 ,	 0.00671587207 
END
BEGIN
	 -0.000713895723 ,	 0.00108256972 
	 -0.000647633093 ,	 0.00167034224 
	 0.0017686531 ,	 0.00264838302 
	 0.00253768627 ,	 -0.000776350102 
	 0.00169842843 ,	 -0.00146216003 
	 0.000871870954 ,	 -0.00200281389 
	 0.000149265593 ,	 -0.00311378954 
END
BEGIN
	-0.0372653803,	-0.057528756
	-0.0245334555,	-0.0173618843
	 -0.00161173308 ,	 -9.52970678e-005 
	 -0.000919416879 ,	 -0.00030519338 
	 -0.00447854596 ,	 -0.00103922521 
	-0.0236274237,	 0.00240101616
	-0.0659271299,	 0.0527066835
END
BEGIN
	-0.92533033,	 0.0301697244
	-0.879976815,	 0.350023465
	-0.627150981,	 0.727170128
	-0.2923222,	 0.91167583
	-0.0932334369,	 0.945461151
	 0.265459922,	 0.883967359
	 0.670774857,	 0.496709995
END
BEGIN
	 0.00403384169 ,	 -0.00135489015 
	 0.00270042073 ,	 -0.00166066963 
	 0.00106058225 ,	 -0.00149019167 
	 7.25153226e-005 ,	 -0.00111552935 
	 -0.000340710989 ,	 -0.000904270282 
	 -0.000943740908 ,	 -0.000399074094 
	 -0.00118024548 ,	 0.000866969191 
END
BEGIN
	 0.00250029933 ,	 -0.00118774222 
	 0.00138235324 ,	 -0.00119848154 
	 0.00011007703 ,	 -0.000742962563 
	 -0.000609940725 ,	 -0.000241764593 
	 -0.000892535773 ,	 3.59279382e-005 
	 -0.00121025803 ,	 0.000607430106 
	 -0.000919092348 ,	 0.00154717012 
END
BEGIN
	 0.00150120132 ,	 -0.0022991155 
	 0.000687539844 ,	 -0.00339924483 
	 -0.00475190891 ,	 -0.00466476537 
	 -0.0063413745 ,	 0.00208045746 
	 -0.00504761398 ,	 0.0034806976 
	 -0.00385967232 ,	 0.00476897302 
	 -0.00274761723 ,	 0.00671587207 
END
BEGIN
	 0.00403384169 ,	 -0.00135489015 
	 0.00270042073 ,	 -0.00166066963 
	 0.00106058225 ,	 -0.00149019167 
	 7.25153226e-005 ,	 -0.00111552935 
	 -0.000340710989 ,	 -0.000904270282 
	 -0.000943740908 ,	 -0.000399074094 
	 -0.00118024548 ,	 0.000866969191 
END
BEGIN
	 0.907572653,	-0.40079513
	 0.897547015,	-0.421449555
	 0.876065722,	-0.462011231
	 0.852745801,	-0.501580006
	 0.84038147,	-0.520988711
	 0.820945157,	-0.549608888
	 0.800720069,	-0.577313028
END
BEGIN
	 -0.000261464751 ,	 -0.00014178862 
	 -0.00031059225 ,	 -0.000143699555 
	 -0.000407776663 ,	 -0.000131734977 
	 -0.000502950351 ,	 -9.61477464e-005 
	 -0.000535992765 ,	 -7.22129453e-005 
	 -0.000566687298 ,	 -4.63050646e-005 
	 -0.00060265317 ,	 -2.12212119e-006 
END
BEGIN
	 -0.000713895723 ,	 0.00108256972 
	 -0.000647633093 ,	 0.00167034224 
	 0.0017686531 ,	 0.00264838302 
	 0.00253768627 ,	 -0.000776350102 
	 0.00169842843 ,	 -0.00146216003 
	 0.000871870954 ,	 -0.00200281389 
	 0.000149265593 ,	 -0.00311378954 
END
BEGIN
	 0.00250029933 ,	 -0.00118774222 
	 0.00138235324 ,	 -0.00119848154 
	 0.00011007703 ,	 -0.000742962563 
	 -0.000609940725 ,	 -0.000241764593 
	 -0.000892535773 ,	 3.59279382e-005 
	 -0.00121025803 ,	 0.000607430106 
	 -0.000919092348 ,	 0.00154717012 
END
BEGIN
	 -0.000261464751 ,	 -0.00014178862 
	 -0.00031059225 ,	 -0.000143699555 
	 -0.000407776663 ,	 -0.000131734977 
	 -0.000502950351 ,	 -9.61477464e-005 
	 -0.000535992765 ,	 -7.22129453e-005 
	 -0.000566687298 ,	 -4.63050646e-005 
	 -0.00060265317 ,	 -2.12212119e-006 
END
BEGIN
	 0.907600249,	-0.400757214
	 0.897577947,	-0.421408575
	 0.876105927,	-0.461975907
	 0.852776873,	-0.501543939
	 0.840413843,	-0.520946729
	 0.820984606,	-0.549559987
	 0.80077374,	-0.5772573
END
BEGIN
	 0.724787308,	 73.173613
	 0.763106563,	 77.231065
	 0.839803565,	 85.3489235
	 0.916581918,	 93.4723413
	 0.955002182,	 97.5367564
	 1.0127353830000001 ,	 103.635183 
	 1.070544589 ,	 109.73797260000001 
END
BEGIN
	 0.724787308,	 73.173613
	 0.763106563,	 77.231065
	 0.839803565,	 85.3489235
	 0.916581918,	 93.4723413
	 0.955002182,	 97.5367564
	 1.0127353830000001 ,	 103.635183 
	 1.070544589 ,	 109.73797260000001 
END
BEGIN
	 0.724787308,	 73.173613
	 0.763106563,	 77.231065
	 0.839803565,	 85.3489235
	 0.916581918,	 93.4723413
	 0.955002182,	 97.5367564
	 1.0127353830000001 ,	 103.635183 
	 1.070544589 ,	 109.73797260000001 
END
BEGIN
	 0.724787308,	 73.173613
	 0.763106563,	 77.231065
	 0.839803565,	 85.3489235
	 0.916581918,	 93.4723413
	 0.955002182,	 97.5367564
	 1.0127353830000001 ,	 103.635183 
	 1.070544589 ,	 109.73797260000001 
END
BEGIN
	 106.1562665 ,	 0.77873974869999996 
	 106.1981694 ,	 0.7837470768 
	 106.2817939 ,	 0.79292791269999996 
	 106.365225 ,	 0.80122173109999995 
	 106.4068705 ,	 0.80509944769999997 
	 106.470721 ,	 0.8106146286 
	 106.53508619999999 ,	 0.81583506800000005 
END
BEGIN
	 106.1562665 ,	 0.77873974869999996 
	 106.1981694 ,	 0.7837470768 
	 106.2817939 ,	 0.79292791269999996 
	 106.365225 ,	 0.80122173109999995 
	 106.4068705 ,	 0.80509944769999997 
	 106.470721 ,	 0.8106146286 
	 106.53508619999999 ,	 0.81583506800000005 
END
BEGIN
	 106.1562665 ,	 0.77873974869999996 
	 106.1981694 ,	 0.7837470768 
	 106.2817939 ,	 0.79292791269999996 
	 106.365225 ,	 0.80122173109999995 
	 106.4068705 ,	 0.80509944769999997 
	 106.470721 ,	 0.8106146286 
	 106.53508619999999 ,	 0.81583506800000005 
END
BEGIN
	 106.1562665 ,	 0.77873974869999996 
	 106.1981694 ,	 0.7837470768 
	 106.2817939 ,	 0.79292791269999996 
	 106.365225 ,	 0.80122173109999995 
	 106.4068705 ,	 0.80509944769999997 
	 106.470721 ,	 0.8106146286 
	 106.53508619999999 ,	 0.81583506800000005 
END
BEGIN
	 50 ,	 0 
	 50 ,	 0 
	 50 ,	 0 
	 50 ,	 0 
	 50 ,	 0 
	 50 ,	 0 
	 50 ,	 0 
END
BEGIN
	 50 ,	 0 
	 50 ,	 0 
	 50 ,	 0 
	 50 ,	 0 
	 50 ,	 0 
	 50 ,	 0 
	 50 ,	 0 
END
BEGIN
	 50 ,	 0 
	 50 ,	 0 
	 50 ,	 0 
	 50 ,	 0 
	 50 ,	 0 
	 50 ,	 0 
	 50 ,	 0 
END
BEGIN
	 50 ,	 0 
	 50 ,	 0 
	 50 ,	 0 
	 50 ,	 0 
	 50 ,	 0 
	 50 ,	 0 
	 50 ,	 0 
END
