CITIFILE A.01.01
#Momentum: B.12.00.024 (*) built: Jan 14 2016 
#Momentum Date and Time: Sat Nov 18 16:56:42 2017

NAME PortSet1/TwoP0_Dsolver_data/first_odd_mode_is_1/most_even_mode_is_1/PMLG4/LS0


CONSTANT NBR_OF_PORTS 4

VAR freq MAG 6

DATA GAMMA_1[1] RI
DATA Z0_1[1,1] RI
DATA LAMBADAI_1[1,1] RI
DATA Zcir_1[1,1] RI
DATA Ycir_1[1,1] RI

VAR_LIST_BEGIN
	 2000000000
	 2020000000
	 2040000000
	 2060000000
	 2665287848
	 3000000000
VAR_LIST_END

BEGIN
	 0.724787308,	 73.17361296
	 0.7316838259,	 73.9038866
	 0.73858061,	 74.63419202
	 0.7454776995,	 75.36452994
	 0.9545248739,	 97.48632098
	 1.070544588537049 ,	 109.73797263840993 
END
BEGIN
	 106.15626649302881 ,	 0.77873974857033945 
	 106.16382476881182 ,	 0.77966426714652681 
	 106.1713726032422 ,	 0.78057835686637533 
	 106.178910909569 ,	 0.78148227666438796 
	 106.40634440117402 ,	 0.80505244897542172 
	 106.53508621159813 ,	 0.81583506791059557 
END
BEGIN
	 0.724787308,	 73.17361296
	 0.7316838259,	 73.9038866
	 0.73858061,	 74.63419202
	 0.7454776995,	 75.36452994
	 0.9545248739,	 97.48632098
	 1.0705445885370488 ,	 109.73797263840993 
END
BEGIN
	 0.05297559062,	 1.64093432e-009
	 0.0532426788,	 1.641018757e-009
	 0.05350851423,	 1.641104364e-009
	 0.0537731163,	 1.64119113e-009
	 0.06127963945,	 1.644329165e-009
	 0.06509290427,	 1.646456597e-009
END
BEGIN
	 4.4768662939393682 ,	 2.0662111408865552e-008 
	 4.5221744161947868 ,	 2.066022806765196e-008 
	 4.5674945993780494 ,	 2.0658363875718785e-008 
	 4.6128268488376634 ,	 2.0656518354717211e-008 
	 5.9904808844814692 ,	 2.0607521673476324e-008 
	 6.7569710658659945 ,	 2.0584288597973653e-008 
END
CITIFILE A.01.01
NAME PortSet2/TwoP0_Dsolver_data/first_odd_mode_is_1/most_even_mode_is_1/PMLG4/LS0

VAR freq MAG 6

DATA GAMMA_1[1] RI
DATA Z0_1[1,1] RI
DATA LAMBADAI_1[1,1] RI
DATA Zcir_1[1,1] RI
DATA Ycir_1[1,1] RI

VAR_LIST_BEGIN
	 2000000000
	 2020000000
	 2040000000
	 2060000000
	 2665287848
	 3000000000
VAR_LIST_END

BEGIN
	 0.724787308,	 73.17361296
	 0.7316838259,	 73.9038866
	 0.73858061,	 74.63419202
	 0.7454776995,	 75.36452994
	 0.9545248739,	 97.48632098
	 1.070544588537049 ,	 109.73797263840993 
END
BEGIN
	 106.15626649302881 ,	 0.77873974857033945 
	 106.16382476881182 ,	 0.77966426714652681 
	 106.1713726032422 ,	 0.78057835686637533 
	 106.178910909569 ,	 0.78148227666438796 
	 106.40634440117402 ,	 0.80505244897542172 
	 106.53508621159813 ,	 0.81583506791059557 
END
BEGIN
	 0.724787308,	 73.17361296
	 0.7316838259,	 73.9038866
	 0.73858061,	 74.63419202
	 0.7454776995,	 75.36452994
	 0.9545248739,	 97.48632098
	 1.0705445885370488 ,	 109.73797263840993 
END
BEGIN
	 0.05297559062,	 1.64093432e-009
	 0.0532426788,	 1.641018757e-009
	 0.05350851423,	 1.641104364e-009
	 0.0537731163,	 1.64119113e-009
	 0.06127963945,	 1.644329165e-009
	 0.06509290427,	 1.646456597e-009
END
BEGIN
	 4.4768662939393682 ,	 2.0662111408865552e-008 
	 4.5221744161947868 ,	 2.066022806765196e-008 
	 4.5674945993780494 ,	 2.0658363875718785e-008 
	 4.6128268488376634 ,	 2.0656518354717211e-008 
	 5.9904808844814692 ,	 2.0607521673476324e-008 
	 6.7569710658659945 ,	 2.0584288597973653e-008 
END
CITIFILE A.01.01
NAME PortSet3/TwoP0_Dsolver_data/first_odd_mode_is_1/most_even_mode_is_1/PMLG4/LS0

VAR freq MAG 7

DATA GAMMA_3[1] RI
DATA GAMMA_3[2] RI
DATA Z0_3[1,1] RI
DATA Z0_3[1,2] RI
DATA Z0_3[2,1] RI
DATA Z0_3[2,2] RI
DATA LAMBADAI_3[1,1] RI
DATA LAMBADAI_3[1,2] RI
DATA LAMBADAI_3[2,1] RI
DATA LAMBADAI_3[2,2] RI
DATA Zcir_3[1,1] RI
DATA Zcir_3[1,2] RI
DATA Zcir_3[2,1] RI
DATA Zcir_3[2,2] RI
DATA Ycir_3[1,1] RI
DATA Ycir_3[1,2] RI
DATA Ycir_3[2,1] RI
DATA Ycir_3[2,2] RI

VAR_LIST_BEGIN
	 2000000000
	 2020000000
	 2040000000
	 2060000000
	 2244285914
	 2761975691
	 3000000000
VAR_LIST_END

BEGIN
	 0.7247870726,	 73.17361376
	 0.7316835879,	 73.90388741
	 0.7385808638,	 74.63419406
	 0.745477651,	 75.36452975
	 0.809050765,	 82.09572789
	 0.9880012701,	 101.0239115
	 1.0705442033559245 ,	 109.73797510593091 
END
BEGIN
	 0.7247870726,	 73.17361376
	 0.7316835879,	 73.90388741
	 0.7385808638,	 74.63419406
	 0.745477651,	 75.36452975
	 0.809050765,	 82.09572789
	 0.9880012701,	 101.0239115
	 1.0705442033559245 ,	 109.73797510593091 
END
BEGIN
	 106.15626762592375 ,	 0.77874010971980634 
	 106.16382590156078 ,	 0.77966462864883146 
	 106.17137546081791 ,	 0.78057804538146458 
	 106.17891064431784 ,	 0.78148234045163245 
	 106.2480715577222 ,	 0.78937329414276602 
	 106.44316069791721 ,	 0.80829499726076648 
	 106.53508852128073 ,	 0.81583548250356352 
END
BEGIN
	 0 ,	 0 
	 0 ,	 0 
	 0 ,	 0 
	 0 ,	 0 
	 0 ,	 0 
	 0 ,	 0 
	 0 ,	 0 
END
BEGIN
	 0 ,	 0 
	 0 ,	 0 
	 0 ,	 0 
	 0 ,	 0 
	 0 ,	 0 
	 0 ,	 0 
	 0 ,	 0 
END
BEGIN
	 106.15626762592376 ,	 0.77874010971979479 
	 106.16382590156108 ,	 0.77966462864883357 
	 106.17137546081783 ,	 0.78057804538146447 
	 106.17891064431819 ,	 0.78148234045163512 
	 106.24807155772235 ,	 0.7893732941427668 
	 106.44316069791681 ,	 0.80829499726076415 
	 106.53508852128031 ,	 0.81583548250356108 
END
BEGIN
	 0.7247870726,	 73.17361376
	 0.7316835879,	 73.90388741
	 0.7385808638,	 74.63419406
	 0.745477651,	 75.36452975
	 0.809050765,	 82.09572789
	 0.9880012701,	 101.0239115
	 1.0705442033559245 ,	 109.73797510593091 
END
BEGIN
	 0 ,	 0 
	 0 ,	 0 
	 0 ,	 0 
	 0 ,	 0 
	 0 ,	 0 
	 0 ,	 0 
	 0 ,	 0 
END
BEGIN
	 0 ,	 0 
	 0 ,	 0 
	 0 ,	 0 
	 0 ,	 0 
	 0 ,	 0 
	 0 ,	 0 
	 0 ,	 0 
END
BEGIN
	 0.7247870726,	 73.17361376
	 0.7316835879,	 73.90388741
	 0.7385808638,	 74.63419406
	 0.745477651,	 75.36452975
	 0.809050765,	 82.09572789
	 0.9880012701,	 101.0239115
	 1.0705442033559245 ,	 109.73797510593091 
END
BEGIN
	 0.05297545467,	 1.640934355e-009
	 0.05324254136,	 1.641018793e-009
	 0.05350864883,	 1.641104453e-009
	 0.05377308973,	 1.641191122e-009
	 0.05615663163,	 1.642043776e-009
	 0.062402338,	 1.644916457e-009
	 0.0650926758,	 1.64645667e-009
END
BEGIN
	 0 ,	 0 
	 0 ,	 0 
	 0 ,	 0 
	 0 ,	 0 
	 0 ,	 0 
	 0 ,	 0 
	 0 ,	 0 
END
BEGIN
	 0 ,	 0 
	 0 ,	 0 
	 0 ,	 0 
	 0 ,	 0 
	 0 ,	 0 
	 0 ,	 0 
	 0 ,	 0 
END
BEGIN
	 0.05297545467,	 1.640934355e-009
	 0.05324254136,	 1.641018793e-009
	 0.05350864883,	 1.641104453e-009
	 0.05377308973,	 1.641191122e-009
	 0.05615663163,	 1.642043776e-009
	 0.062402338,	 1.644916457e-009
	 0.0650926758,	 1.64645667e-009
END
BEGIN
	 4.476866294475963 ,	 2.0662111412324504e-008 
	 4.5221744167470046 ,	 2.0660228071175958e-008 
	 4.5674946008084873 ,	 2.0658363884737172e-008 
	 4.6128268487011503 ,	 2.0656518353865649e-008 
	 5.0310998981113118 ,	 2.064031432929128e-008 
	 6.2115593120520316 ,	 2.0600607574705066e-008 
	 6.7569710694573528 ,	 2.0584288613220643e-008 
END
BEGIN
	 0 ,	 0 
	 0 ,	 0 
	 0 ,	 0 
	 0 ,	 0 
	 0 ,	 0 
	 0 ,	 0 
	 0 ,	 0 
END
BEGIN
	 0 ,	 0 
	 0 ,	 0 
	 0 ,	 0 
	 0 ,	 0 
	 0 ,	 0 
	 0 ,	 0 
	 0 ,	 0 
END
BEGIN
	 4.4768662944759319 ,	 2.0662111412324504e-008 
	 4.5221744167469913 ,	 2.0660228071175902e-008 
	 4.5674946008084927 ,	 2.0658363884737195e-008 
	 4.6128268487011335 ,	 2.0656518353865576e-008 
	 5.0310998981113046 ,	 2.0640314329291254e-008 
	 6.2115593120520591 ,	 2.0600607574705145e-008 
	 6.7569710694573821 ,	 2.0584288613220725e-008 
END
