CITIFILE A.01.01
#Momentum: B.12.00.024 (*) built: Jan 14 2016 
#Momentum Date and Time: Sat Nov 18 16:22:56 2017

NAME PortSet1/TwoP0_Dsolver_data/first_odd_mode_is_1/most_even_mode_is_1/PMLG4/LS0


CONSTANT NBR_OF_PORTS 4

VAR freq MAG 6

DATA GAMMA_1[1] RI
DATA Z0_1[1,1] RI
DATA LAMBADAI_1[1,1] RI
DATA Zcir_1[1,1] RI
DATA Ycir_1[1,1] RI

VAR_LIST_BEGIN
	 2000000000
	 2020000000
	 2040000000
	 2060000000
	 2665287848
	 3000000000
VAR_LIST_END

BEGIN
	 0.724787308,	 73.17361296
	 0.7316838259,	 73.9038866
	 0.73858061,	 74.63419202
	 0.7454776995,	 75.36452994
	 0.9545248739,	 97.48632098
	 1.070544588537049 ,	 109.73797263840993 
END
BEGIN
	 106.15626649302881 ,	 0.77873974857033945 
	 106.16382476881182 ,	 0.77966426714652681 
	 106.1713726032422 ,	 0.78057835686637533 
	 106.178910909569 ,	 0.78148227666438796 
	 106.40634440117402 ,	 0.80505244897542172 
	 106.53508621159813 ,	 0.81583506791059557 
END
BEGIN
	 0.724787308,	 73.17361296
	 0.7316838259,	 73.9038866
	 0.73858061,	 74.63419202
	 0.7454776995,	 75.36452994
	 0.9545248739,	 97.48632098
	 1.0705445885370488 ,	 109.73797263840993 
END
BEGIN
	 0.05297559062,	 1.64093432e-009
	 0.0532426788,	 1.641018757e-009
	 0.05350851423,	 1.641104364e-009
	 0.0537731163,	 1.64119113e-009
	 0.06127963945,	 1.644329165e-009
	 0.06509290427,	 1.646456597e-009
END
BEGIN
	 4.4768662939393682 ,	 2.0662111408865552e-008 
	 4.5221744161947868 ,	 2.066022806765196e-008 
	 4.5674945993780494 ,	 2.0658363875718785e-008 
	 4.6128268488376634 ,	 2.0656518354717211e-008 
	 5.9904808844814692 ,	 2.0607521673476324e-008 
	 6.7569710658659945 ,	 2.0584288597973653e-008 
END
CITIFILE A.01.01
NAME PortSet2/TwoP0_Dsolver_data/first_odd_mode_is_1/most_even_mode_is_1/PMLG4/LS0

VAR freq MAG 6

DATA GAMMA_1[1] RI
DATA Z0_1[1,1] RI
DATA LAMBADAI_1[1,1] RI
DATA Zcir_1[1,1] RI
DATA Ycir_1[1,1] RI

VAR_LIST_BEGIN
	 2000000000
	 2020000000
	 2040000000
	 2060000000
	 2665287848
	 3000000000
VAR_LIST_END

BEGIN
	 0.724787308,	 73.17361296
	 0.7316838259,	 73.9038866
	 0.73858061,	 74.63419202
	 0.7454776995,	 75.36452994
	 0.9545248739,	 97.48632098
	 1.070544588537049 ,	 109.73797263840993 
END
BEGIN
	 106.15626649302881 ,	 0.77873974857033945 
	 106.16382476881182 ,	 0.77966426714652681 
	 106.1713726032422 ,	 0.78057835686637533 
	 106.178910909569 ,	 0.78148227666438796 
	 106.40634440117402 ,	 0.80505244897542172 
	 106.53508621159813 ,	 0.81583506791059557 
END
BEGIN
	 0.724787308,	 73.17361296
	 0.7316838259,	 73.9038866
	 0.73858061,	 74.63419202
	 0.7454776995,	 75.36452994
	 0.9545248739,	 97.48632098
	 1.0705445885370488 ,	 109.73797263840993 
END
BEGIN
	 0.05297559062,	 1.64093432e-009
	 0.0532426788,	 1.641018757e-009
	 0.05350851423,	 1.641104364e-009
	 0.0537731163,	 1.64119113e-009
	 0.06127963945,	 1.644329165e-009
	 0.06509290427,	 1.646456597e-009
END
BEGIN
	 4.4768662939393682 ,	 2.0662111408865552e-008 
	 4.5221744161947868 ,	 2.066022806765196e-008 
	 4.5674945993780494 ,	 2.0658363875718785e-008 
	 4.6128268488376634 ,	 2.0656518354717211e-008 
	 5.9904808844814692 ,	 2.0607521673476324e-008 
	 6.7569710658659945 ,	 2.0584288597973653e-008 
END
CITIFILE A.01.01
NAME PortSet3/TwoP0_Dsolver_data/first_odd_mode_is_1/most_even_mode_is_1/PMLG4/LS0

VAR freq MAG 6

DATA GAMMA_1[1] RI
DATA Z0_1[1,1] RI
DATA LAMBADAI_1[1,1] RI
DATA Zcir_1[1,1] RI
DATA Ycir_1[1,1] RI

VAR_LIST_BEGIN
	 2000000000
	 2020000000
	 2040000000
	 2060000000
	 2665287848
	 3000000000
VAR_LIST_END

BEGIN
	 0.724787308,	 73.17361296
	 0.7316838259,	 73.9038866
	 0.73858061,	 74.63419202
	 0.7454776995,	 75.36452994
	 0.9545248739,	 97.48632098
	 1.070544588537049 ,	 109.73797263840993 
END
BEGIN
	 106.15626649302881 ,	 0.77873974857033945 
	 106.16382476881182 ,	 0.77966426714652681 
	 106.1713726032422 ,	 0.78057835686637533 
	 106.178910909569 ,	 0.78148227666438796 
	 106.40634440117402 ,	 0.80505244897542172 
	 106.53508621159813 ,	 0.81583506791059557 
END
BEGIN
	 0.724787308,	 73.17361296
	 0.7316838259,	 73.9038866
	 0.73858061,	 74.63419202
	 0.7454776995,	 75.36452994
	 0.9545248739,	 97.48632098
	 1.0705445885370488 ,	 109.73797263840993 
END
BEGIN
	 0.05297559062,	 1.64093432e-009
	 0.0532426788,	 1.641018757e-009
	 0.05350851423,	 1.641104364e-009
	 0.0537731163,	 1.64119113e-009
	 0.06127963945,	 1.644329165e-009
	 0.06509290427,	 1.646456597e-009
END
BEGIN
	 4.4768662939393682 ,	 2.0662111408865552e-008 
	 4.5221744161947868 ,	 2.066022806765196e-008 
	 4.5674945993780494 ,	 2.0658363875718785e-008 
	 4.6128268488376634 ,	 2.0656518354717211e-008 
	 5.9904808844814692 ,	 2.0607521673476324e-008 
	 6.7569710658659945 ,	 2.0584288597973653e-008 
END
CITIFILE A.01.01
NAME PortSet4/TwoP0_Dsolver_data/first_odd_mode_is_1/most_even_mode_is_1/PMLG4/LS0

VAR freq MAG 6

DATA GAMMA_1[1] RI
DATA Z0_1[1,1] RI
DATA LAMBADAI_1[1,1] RI
DATA Zcir_1[1,1] RI
DATA Ycir_1[1,1] RI

VAR_LIST_BEGIN
	 2000000000
	 2020000000
	 2040000000
	 2060000000
	 2665287848
	 3000000000
VAR_LIST_END

BEGIN
	 0.724787308,	 73.17361296
	 0.7316838259,	 73.9038866
	 0.73858061,	 74.63419202
	 0.7454776995,	 75.36452994
	 0.9545248739,	 97.48632098
	 1.070544588537049 ,	 109.73797263840993 
END
BEGIN
	 106.15626649302881 ,	 0.77873974857033945 
	 106.16382476881182 ,	 0.77966426714652681 
	 106.1713726032422 ,	 0.78057835686637533 
	 106.178910909569 ,	 0.78148227666438796 
	 106.40634440117402 ,	 0.80505244897542172 
	 106.53508621159813 ,	 0.81583506791059557 
END
BEGIN
	 0.724787308,	 73.17361296
	 0.7316838259,	 73.9038866
	 0.73858061,	 74.63419202
	 0.7454776995,	 75.36452994
	 0.9545248739,	 97.48632098
	 1.0705445885370488 ,	 109.73797263840993 
END
BEGIN
	 0.05297559062,	 1.64093432e-009
	 0.0532426788,	 1.641018757e-009
	 0.05350851423,	 1.641104364e-009
	 0.0537731163,	 1.64119113e-009
	 0.06127963945,	 1.644329165e-009
	 0.06509290427,	 1.646456597e-009
END
BEGIN
	 4.4768662939393682 ,	 2.0662111408865552e-008 
	 4.5221744161947868 ,	 2.066022806765196e-008 
	 4.5674945993780494 ,	 2.0658363875718785e-008 
	 4.6128268488376634 ,	 2.0656518354717211e-008 
	 5.9904808844814692 ,	 2.0607521673476324e-008 
	 6.7569710658659945 ,	 2.0584288597973653e-008 
END
