CITIFILE A.01.01
#Momentum: B.12.00.024 (*) built: Jan 14 2016 
#Momentum Date and Time: Sat Nov 18 16:56:46 2017

NAME Momentum.SP

#  mode: MW    project: proj    reference: S_50

#eesof Port[1] P1
#eesof Port[2] P2
#eesof Port[3] P3
#eesof Port[4] P4

CONSTANT NBR_OF_PORTS 4

CONSTANT NORMALIZATION 1

VAR freq MAG 8

DATA S[1,1] RI
DATA S[1,2] RI
DATA S[1,3] RI
DATA S[1,4] RI
DATA S[2,1] RI
DATA S[2,2] RI
DATA S[2,3] RI
DATA S[2,4] RI
DATA S[3,1] RI
DATA S[3,2] RI
DATA S[3,3] RI
DATA S[3,4] RI
DATA S[4,1] RI
DATA S[4,2] RI
DATA S[4,3] RI
DATA S[4,4] RI
DATA S_50[1,1] RI
DATA S_50[1,2] RI
DATA S_50[1,3] RI
DATA S_50[1,4] RI
DATA S_50[2,1] RI
DATA S_50[2,2] RI
DATA S_50[2,3] RI
DATA S_50[2,4] RI
DATA S_50[3,1] RI
DATA S_50[3,2] RI
DATA S_50[3,3] RI
DATA S_50[3,4] RI
DATA S_50[4,1] RI
DATA S_50[4,2] RI
DATA S_50[4,3] RI
DATA S_50[4,4] RI
DATA S_Z0[1,1] RI
DATA S_Z0[1,2] RI
DATA S_Z0[1,3] RI
DATA S_Z0[1,4] RI
DATA S_Z0[2,1] RI
DATA S_Z0[2,2] RI
DATA S_Z0[2,3] RI
DATA S_Z0[2,4] RI
DATA S_Z0[3,1] RI
DATA S_Z0[3,2] RI
DATA S_Z0[3,3] RI
DATA S_Z0[3,4] RI
DATA S_Z0[4,1] RI
DATA S_Z0[4,2] RI
DATA S_Z0[4,3] RI
DATA S_Z0[4,4] RI
DATA GAMMA[1] RI
DATA GAMMA[2] RI
DATA Z0[1] RI
DATA Z0[2] RI
DATA Z0[3] RI
DATA Z0[4] RI
DATA PORTZ[1] RI
DATA PORTZ[2] RI
DATA PORTZ[3] RI
DATA PORTZ[4] RI

VAR_LIST_BEGIN
	 2000000000
	 2111111111
	 2333333333
	 2500000000
	 2666666667
	 2814814815
	 2888888889
	 3000000000
VAR_LIST_END

BEGIN
	-0.074748769,	 0.115200183
	-0.101787923,	 0.225228607
	 0.0562057168,	 0.347749516
	 0.202023098,	 0.276060862
	 0.249659744,	 0.103181802
	 0.161610002,	-0.0541650489
	 0.0740712686,	-0.102365611
	-0.085542335,	-0.103518292
END
BEGIN
	 0.0182011421,	-0.0269420207
	 0.00659332914,	-0.0169894278
	 0.000999288574 ,	 -0.00241945714 
	 0.00196636342 ,	 0.000200338897 
	 0.00114187846 ,	 -0.00262663952 
	-0.00444888327,	-0.0104573916
	-0.0120305958,	-0.0174224442
	-0.0399940292,	-0.0310513504
END
BEGIN
	-0.476444255,	-0.407576504
	-0.591599062,	-0.191648922
	-0.571333364,	 0.218388579
	-0.412497768,	 0.456165611
	-0.154898114,	 0.605992914
	 0.138312746,	 0.617174371
	 0.290541676,	 0.561466174
	 0.490028843,	 0.386388495
END
BEGIN
	 0.535734958,	 0.406682648
	 0.625518108,	 0.186393203
	 0.578319621,	-0.218077867
	 0.41429888,	-0.451533485
	 0.159064548,	-0.600604917
	-0.123450357,	-0.61709652
	-0.265240351,	-0.570038471
	-0.441672956,	-0.428360673
END
BEGIN
	 0.0182011421,	-0.0269420207
	 0.00659332914,	-0.0169894278
	 0.00099928857 ,	 -0.00241945716 
	 0.00196636353 ,	 0.000200338906 
	 0.0011418794 ,	 -0.00262663915 
	-0.00444888327,	-0.0104573916
	-0.0120305915,	-0.0174224506
	-0.0399940293,	-0.0310513509
END
BEGIN
	 0.301421145,	-0.00939271452
	 0.219440551,	-0.0381261075
	 0.0890088802,	-0.0277274935
	 0.0308631725,	 0.0197250687
	 0.0184921781,	 0.0830824624
	 0.0568614038,	 0.134069066
	 0.0977215251,	 0.148478758
	 0.190962886,	 0.135038461
END
BEGIN
	 0.168891259,	-0.638582008
	 0.0442904864,	-0.674655266
	-0.185777414,	-0.659009556
	-0.336284322,	-0.594875629
	-0.465812456,	-0.492537352
	-0.557718182,	-0.365436036
	-0.590229123,	-0.285791949
	-0.606161187,	-0.142287946
END
BEGIN
	 0.129105272,	-0.625625294
	 0.0284825397,	-0.655472154
	-0.183182877,	-0.652958386
	-0.3337522,	-0.597028713
	-0.463752057,	-0.500653834
	-0.555597245,	-0.385945828
	-0.592184026,	-0.318707813
	-0.633779482,	-0.20135702
END
BEGIN
	-0.476444255,	-0.407576504
	-0.591599062,	-0.191648922
	-0.571333364,	 0.218388579
	-0.412497768,	 0.456165611
	-0.154898113,	 0.605992914
	 0.138312746,	 0.617174371
	 0.290541677,	 0.561466167
	 0.490028843,	 0.386388494
END
BEGIN
	 0.168891259,	-0.638582008
	 0.0442904864,	-0.674655266
	-0.185777414,	-0.659009556
	-0.336284322,	-0.594875629
	-0.465812456,	-0.492537353
	-0.557718182,	-0.365436036
	-0.590229126,	-0.285791953
	-0.606161187,	-0.142287947
END
BEGIN
	 0.130100989,	 0.17081434
	 0.119802165,	 0.171483428
	 0.142645364,	 0.145112697
	 0.139888276,	 0.087952124
	 0.0899242985,	 0.0318204667
	 0.0129393414,	 0.0186209777
	-0.0273365921,	 0.0326004759
	-0.0757709433,	 0.0811152194
END
BEGIN
	 0.13843927,	 0.0257352822
	 0.0987957341,	-0.0768310319
	-0.0531097504,	-0.147691161
	-0.14390829,	-0.108452896
	-0.181295241,	-0.0446685997
	-0.185283336,	-0.0100049404
	-0.192099105,	-0.00627951749
	-0.231121256,	-0.00702296225
END
BEGIN
	 0.535734958,	 0.406682648
	 0.625518108,	 0.186393203
	 0.578319621,	-0.218077867
	 0.41429888,	-0.451533485
	 0.159064549,	-0.600604918
	-0.123450357,	-0.61709652
	-0.26524035,	-0.570038477
	-0.441672956,	-0.428360673
END
BEGIN
	 0.129105272,	-0.625625294
	 0.0284825397,	-0.655472154
	-0.183182877,	-0.652958386
	-0.3337522,	-0.597028713
	-0.463752057,	-0.500653834
	-0.555597245,	-0.385945828
	-0.592184024,	-0.318707809
	-0.633779481,	-0.20135702
END
BEGIN
	 0.13843927,	 0.0257352822
	 0.0987957341,	-0.0768310319
	-0.0531097504,	-0.147691161
	-0.143908289,	-0.108452896
	-0.181295241,	-0.0446685991
	-0.185283336,	-0.0100049404
	-0.192099098,	-0.00627951385
	-0.231121256,	-0.00702296201
END
BEGIN
	 0.0770350472,	 0.127386047
	 0.0846273619,	 0.165007887
	 0.138877925,	 0.150780218
	 0.142963957,	 0.0899087103
	 0.0963137591,	 0.0353244901
	 0.0326444283,	 0.0260116968
	 0.00684524745,	 0.0374593784
	-0.00942706796,	 0.0608012335
END
BEGIN
	-0.074748769,	 0.115200183
	-0.101787923,	 0.225228607
	 0.0562057168,	 0.347749516
	 0.202023098,	 0.276060862
	 0.249659744,	 0.103181802
	 0.161610002,	-0.0541650489
	 0.0740712686,	-0.102365611
	-0.085542335,	-0.103518292
END
BEGIN
	 0.0182011421,	-0.0269420207
	 0.00659332914,	-0.0169894278
	 0.000999288574 ,	 -0.00241945714 
	 0.00196636342 ,	 0.000200338897 
	 0.00114187846 ,	 -0.00262663952 
	-0.00444888327,	-0.0104573916
	-0.0120305958,	-0.0174224442
	-0.0399940292,	-0.0310513504
END
BEGIN
	-0.476444255,	-0.407576504
	-0.591599062,	-0.191648922
	-0.571333364,	 0.218388579
	-0.412497768,	 0.456165611
	-0.154898114,	 0.605992914
	 0.138312746,	 0.617174371
	 0.290541676,	 0.561466174
	 0.490028843,	 0.386388495
END
BEGIN
	 0.535734958,	 0.406682648
	 0.625518108,	 0.186393203
	 0.578319621,	-0.218077867
	 0.41429888,	-0.451533485
	 0.159064548,	-0.600604917
	-0.123450357,	-0.61709652
	-0.265240351,	-0.570038471
	-0.441672956,	-0.428360673
END
BEGIN
	 0.0182011421,	-0.0269420207
	 0.00659332914,	-0.0169894278
	 0.00099928857 ,	 -0.00241945716 
	 0.00196636353 ,	 0.000200338906 
	 0.0011418794 ,	 -0.00262663915 
	-0.00444888327,	-0.0104573916
	-0.0120305915,	-0.0174224506
	-0.0399940293,	-0.0310513509
END
BEGIN
	 0.301421145,	-0.00939271452
	 0.219440551,	-0.0381261075
	 0.0890088802,	-0.0277274935
	 0.0308631725,	 0.0197250687
	 0.0184921781,	 0.0830824624
	 0.0568614038,	 0.134069066
	 0.0977215251,	 0.148478758
	 0.190962886,	 0.135038461
END
BEGIN
	 0.168891259,	-0.638582008
	 0.0442904864,	-0.674655266
	-0.185777414,	-0.659009556
	-0.336284322,	-0.594875629
	-0.465812456,	-0.492537352
	-0.557718182,	-0.365436036
	-0.590229123,	-0.285791949
	-0.606161187,	-0.142287946
END
BEGIN
	 0.129105272,	-0.625625294
	 0.0284825397,	-0.655472154
	-0.183182877,	-0.652958386
	-0.3337522,	-0.597028713
	-0.463752057,	-0.500653834
	-0.555597245,	-0.385945828
	-0.592184026,	-0.318707813
	-0.633779482,	-0.20135702
END
BEGIN
	-0.476444255,	-0.407576504
	-0.591599062,	-0.191648922
	-0.571333364,	 0.218388579
	-0.412497768,	 0.456165611
	-0.154898113,	 0.605992914
	 0.138312746,	 0.617174371
	 0.290541677,	 0.561466167
	 0.490028843,	 0.386388494
END
BEGIN
	 0.168891259,	-0.638582008
	 0.0442904864,	-0.674655266
	-0.185777414,	-0.659009556
	-0.336284322,	-0.594875629
	-0.465812456,	-0.492537353
	-0.557718182,	-0.365436036
	-0.590229126,	-0.285791953
	-0.606161187,	-0.142287947
END
BEGIN
	 0.130100989,	 0.17081434
	 0.119802165,	 0.171483428
	 0.142645364,	 0.145112697
	 0.139888276,	 0.087952124
	 0.0899242985,	 0.0318204667
	 0.0129393414,	 0.0186209777
	-0.0273365921,	 0.0326004759
	-0.0757709433,	 0.0811152194
END
BEGIN
	 0.13843927,	 0.0257352822
	 0.0987957341,	-0.0768310319
	-0.0531097504,	-0.147691161
	-0.14390829,	-0.108452896
	-0.181295241,	-0.0446685997
	-0.185283336,	-0.0100049404
	-0.192099105,	-0.00627951749
	-0.231121256,	-0.00702296225
END
BEGIN
	 0.535734958,	 0.406682648
	 0.625518108,	 0.186393203
	 0.578319621,	-0.218077867
	 0.41429888,	-0.451533485
	 0.159064549,	-0.600604918
	-0.123450357,	-0.61709652
	-0.26524035,	-0.570038477
	-0.441672956,	-0.428360673
END
BEGIN
	 0.129105272,	-0.625625294
	 0.0284825397,	-0.655472154
	-0.183182877,	-0.652958386
	-0.3337522,	-0.597028713
	-0.463752057,	-0.500653834
	-0.555597245,	-0.385945828
	-0.592184024,	-0.318707809
	-0.633779481,	-0.20135702
END
BEGIN
	 0.13843927,	 0.0257352822
	 0.0987957341,	-0.0768310319
	-0.0531097504,	-0.147691161
	-0.143908289,	-0.108452896
	-0.181295241,	-0.0446685991
	-0.185283336,	-0.0100049404
	-0.192099098,	-0.00627951385
	-0.231121256,	-0.00702296201
END
BEGIN
	 0.0770350472,	 0.127386047
	 0.0846273619,	 0.165007887
	 0.138877925,	 0.150780218
	 0.142963957,	 0.0899087103
	 0.0963137591,	 0.0353244901
	 0.0326444283,	 0.0260116968
	 0.00684524745,	 0.0374593784
	-0.00942706796,	 0.0608012335
END
BEGIN
	-0.4258988,	 0.102056232
	-0.457518644,	 0.188998007
	-0.346704214,	 0.316627275
	-0.197924444,	 0.281343168
	-0.125448769,	 0.112969855
	-0.213203851,	-0.0474838836
	-0.299314499,	-0.0873017575
	-0.437058103,	-0.0759275188
END
BEGIN
	 0.0179787894,	-0.0251096096
	 0.00680524753,	-0.0150909207
	 0.00113838195 ,	 -0.00209028904 
	 0.00182346672 ,	 0.000381223783 
	 0.00125019775 ,	 -0.0024505219 
	-0.00400026802,	-0.00992191488
	-0.0109903339,	-0.0161835835
	-0.0359758271,	-0.0283007495
END
BEGIN
	-0.424140015,	-0.390913268
	-0.520402165,	-0.211957413
	-0.560680544,	 0.138694083
	-0.456765888,	 0.410841704
	-0.181865402,	 0.614333011
	 0.151849955,	 0.610240614
	 0.301712972,	 0.530287474
	 0.463984912,	 0.339494365
END
BEGIN
	 0.467937878,	 0.380198245
	 0.54358414,	 0.205443947
	 0.56596965,	-0.137896419
	 0.457799982,	-0.40699587
	 0.184529716,	-0.608284032
	-0.138373417,	-0.605115995
	-0.276753181,	-0.529531732
	-0.408620166,	-0.360653639
END
BEGIN
	 0.0179787894,	-0.0251096096
	 0.00680524753,	-0.0150909207
	 0.00113838195 ,	 -0.00209028906 
	 0.00182346682 ,	 0.000381223802 
	 0.00125019863 ,	 -0.00245052149 
	-0.00400026802,	-0.00992191488
	-0.0109903298,	-0.0161835894
	-0.0359758272,	-0.0283007499
END
BEGIN
	-0.0655112953,	-0.00650517094
	-0.153355256,	-0.0342982217
	-0.280583822,	-0.0196408435
	-0.333145182,	 0.0242289219
	-0.34587583,	 0.0800159128
	-0.315157437,	 0.12780703
	-0.279264888,	 0.144631563
	-0.188470876,	 0.14132022
END
BEGIN
	 0.164234084,	-0.66796418
	 0.0290422795,	-0.681263074
	-0.188705785,	-0.631839903
	-0.316320718,	-0.561519173
	-0.424845847,	-0.472491459
	-0.512025056,	-0.371981814
	-0.552319656,	-0.308349115
	-0.600905874,	-0.182032471
END
BEGIN
	 0.137655748,	-0.658025432
	 0.0188831269,	-0.667542287
	-0.185948567,	-0.62716336
	-0.313204504,	-0.564052282
	-0.423701359,	-0.480950966
	-0.513521792,	-0.388515069
	-0.557437789,	-0.331928265
	-0.621904364,	-0.220723492
END
BEGIN
	-0.424140015,	-0.390913268
	-0.520402165,	-0.211957413
	-0.560680544,	 0.138694083
	-0.456765888,	 0.410841704
	-0.181865401,	 0.61433301
	 0.151849955,	 0.610240614
	 0.301712971,	 0.530287468
	 0.463984912,	 0.339494364
END
BEGIN
	 0.164234084,	-0.66796418
	 0.0290422795,	-0.681263074
	-0.188705785,	-0.631839903
	-0.316320718,	-0.561519173
	-0.424845847,	-0.47249146
	-0.512025056,	-0.371981814
	-0.552319661,	-0.308349119
	-0.600905874,	-0.182032472
END
BEGIN
	-0.00788005541,	 0.223417437
	 0.0451753791,	 0.238076961
	 0.107188594,	 0.160078254
	 0.0523242847,	 0.0863891052
	-0.0578306514,	 0.116332601
	-0.069947994,	 0.239081029
	-0.0202704875,	 0.289520003
	 0.0895012803,	 0.293264749
END
BEGIN
	-0.0376972017,	-0.19677493
	-0.181927599,	-0.184118626
	-0.314925721,	 0.0190644105
	-0.238206536,	 0.181078609
	-0.0686239278,	 0.203977367
	 0.00639985489,	 0.0837915076
	-0.0177536272,	 0.0140322966
	-0.120232669,	-0.0489394484
END
BEGIN
	 0.467937878,	 0.380198245
	 0.54358414,	 0.205443947
	 0.56596965,	-0.137896419
	 0.457799982,	-0.40699587
	 0.184529717,	-0.608284033
	-0.138373417,	-0.605115995
	-0.276753182,	-0.529531737
	-0.408620166,	-0.360653639
END
BEGIN
	 0.137655748,	-0.658025432
	 0.0188831269,	-0.667542287
	-0.185948567,	-0.62716336
	-0.313204504,	-0.564052282
	-0.423701359,	-0.480950966
	-0.513521792,	-0.388515069
	-0.557437786,	-0.331928261
	-0.621904363,	-0.220723493
END
BEGIN
	-0.0376972017,	-0.19677493
	-0.181927599,	-0.184118626
	-0.314925721,	 0.0190644105
	-0.238206535,	 0.181078609
	-0.0686239274,	 0.203977368
	 0.00639985489,	 0.0837915076
	-0.0177536181,	 0.0140322964
	-0.120232669,	-0.0489394486
END
BEGIN
	-0.0389414196,	 0.211704397
	 0.0313913015,	 0.240800319
	 0.108506257,	 0.163143571
	 0.0555227371,	 0.0886358659
	-0.0519837749,	 0.121223911
	-0.0560455783,	 0.246948012
	 0.00150349832,	 0.297730769
	 0.132731447,	 0.295070067
END
BEGIN
	 0.724787308,	 73.173613
	 0.763106563,	 77.231065
	 0.839803565,	 85.3489235
	 0.897379674,	 91.4408544
	 0.955002182,	 97.5367564
	 1.0063168499999999 ,	 102.95737699999999 
	 1.0319966190000001 ,	 105.66892780000001 
	 1.070544589 ,	 109.73797260000001 
END
BEGIN
	 0.724787308,	 73.173613
	 0.763106563,	 77.231065
	 0.839803565,	 85.3489235
	 0.897379674,	 91.4408544
	 0.955002182,	 97.5367564
	 1.0063168499999999 ,	 102.95737699999999 
	 1.0319966190000001 ,	 105.66892780000001 
	 1.070544589 ,	 109.73797260000001 
END
BEGIN
	 106.1562665 ,	 0.77873974869999996 
	 106.1981694 ,	 0.7837470768 
	 106.2817939 ,	 0.79292791269999996 
	 106.3443867 ,	 0.79921955980000003 
	 106.4068705 ,	 0.80509944769999997 
	 106.4636009 ,	 0.81001727160000003 
	 106.4921192 ,	 0.81238519419999999 
	 106.53508619999999 ,	 0.81583506800000005 
END
BEGIN
	 106.1562665 ,	 0.77873974869999996 
	 106.1981694 ,	 0.7837470768 
	 106.2817939 ,	 0.79292791269999996 
	 106.3443867 ,	 0.79921955980000003 
	 106.4068705 ,	 0.80509944769999997 
	 106.4636009 ,	 0.81001727160000003 
	 106.4921192 ,	 0.81238519419999999 
	 106.53508619999999 ,	 0.81583506800000005 
END
BEGIN
	 50 ,	 0 
	 50 ,	 0 
	 50 ,	 0 
	 50 ,	 0 
	 50 ,	 0 
	 50 ,	 0 
	 50 ,	 0 
	 50 ,	 0 
END
BEGIN
	 50 ,	 0 
	 50 ,	 0 
	 50 ,	 0 
	 50 ,	 0 
	 50 ,	 0 
	 50 ,	 0 
	 50 ,	 0 
	 50 ,	 0 
END
BEGIN
	 50 ,	 0 
	 50 ,	 0 
	 50 ,	 0 
	 50 ,	 0 
	 50 ,	 0 
	 50 ,	 0 
	 50 ,	 0 
	 50 ,	 0 
END
BEGIN
	 50 ,	 0 
	 50 ,	 0 
	 50 ,	 0 
	 50 ,	 0 
	 50 ,	 0 
	 50 ,	 0 
	 50 ,	 0 
	 50 ,	 0 
END
BEGIN
	 50 ,	 0 
	 50 ,	 0 
	 50 ,	 0 
	 50 ,	 0 
	 50 ,	 0 
	 50 ,	 0 
	 50 ,	 0 
	 50 ,	 0 
END
BEGIN
	 50 ,	 0 
	 50 ,	 0 
	 50 ,	 0 
	 50 ,	 0 
	 50 ,	 0 
	 50 ,	 0 
	 50 ,	 0 
	 50 ,	 0 
END
