CITIFILE A.01.01
#Momentum: B.12.00.024 (*) built: Jan 14 2016 
#Momentum Date and Time: Sat Nov 18 16:11:06 2017

NAME Momentum.SP

#  mode: MW    project: proj    reference: S_50

#eesof Port[1] P1
#eesof Port[2] P2
#eesof Port[3] P3
#eesof Port[4] P4

CONSTANT NBR_OF_PORTS 4

CONSTANT NORMALIZATION 1

VAR freq MAG 14

DATA S[1,1] RI
DATA S[1,2] RI
DATA S[1,3] RI
DATA S[1,4] RI
DATA S[2,1] RI
DATA S[2,2] RI
DATA S[2,3] RI
DATA S[2,4] RI
DATA S[3,1] RI
DATA S[3,2] RI
DATA S[3,3] RI
DATA S[3,4] RI
DATA S[4,1] RI
DATA S[4,2] RI
DATA S[4,3] RI
DATA S[4,4] RI
DATA S_50[1,1] RI
DATA S_50[1,2] RI
DATA S_50[1,3] RI
DATA S_50[1,4] RI
DATA S_50[2,1] RI
DATA S_50[2,2] RI
DATA S_50[2,3] RI
DATA S_50[2,4] RI
DATA S_50[3,1] RI
DATA S_50[3,2] RI
DATA S_50[3,3] RI
DATA S_50[3,4] RI
DATA S_50[4,1] RI
DATA S_50[4,2] RI
DATA S_50[4,3] RI
DATA S_50[4,4] RI
DATA S_Z0[1,1] RI
DATA S_Z0[1,2] RI
DATA S_Z0[1,3] RI
DATA S_Z0[1,4] RI
DATA S_Z0[2,1] RI
DATA S_Z0[2,2] RI
DATA S_Z0[2,3] RI
DATA S_Z0[2,4] RI
DATA S_Z0[3,1] RI
DATA S_Z0[3,2] RI
DATA S_Z0[3,3] RI
DATA S_Z0[3,4] RI
DATA S_Z0[4,1] RI
DATA S_Z0[4,2] RI
DATA S_Z0[4,3] RI
DATA S_Z0[4,4] RI
DATA GAMMA[1] RI
DATA GAMMA[2] RI
DATA Z0[1] RI
DATA Z0[2] RI
DATA Z0[3] RI
DATA Z0[4] RI
DATA PORTZ[1] RI
DATA PORTZ[2] RI
DATA PORTZ[3] RI
DATA PORTZ[4] RI

VAR_LIST_BEGIN
	 2000000000
	 2018518519
	 2111111111
	 2166666667
	 2222222223
	 2277777778
	 2333333333
	 2500000000
	 2638888889
	 2666666667
	 2814814815
	 2888888889
	 2907407408
	 3000000000
VAR_LIST_END

BEGIN
	-0.883968357,	 0.107785923
	-0.88941416,	 0.126894543
	-0.880027789,	 0.206828839
	-0.847636259,	 0.244014816
	-0.786743566,	 0.260968746
	-0.70726456,	 0.212279024
	-0.717851052,	 0.0882752904
	-0.928740096,	 0.137746262
	-0.938246771,	 0.232808296
	-0.935308675,	 0.248519598
	-0.899554585,	 0.31204445
	-0.890486117,	 0.33400271
	-0.887688827,	 0.341619541
	-0.868214484,	 0.383711161
END
BEGIN
	-0.00724660543,	 0.0202893955
	-0.00567982602,	 0.021004186
	 0.00504498276,	 0.0254947173
	 0.0157256239,	 0.0256957537
	 0.0290978439,	 0.0196492151
	 0.0397701887,	 0.00162095781
	 0.0305476761,	-0.0226171262
	-0.00636091797,	-0.0170646801
	-0.01758074,	-0.0121062129
	-0.0218825167,	-0.0112953943
	-0.0561580005,	 0.0513267598
	 0.0013896023,	 0.0822154296
	 0.0126332766,	 0.079371986
	 0.0429713269,	 0.0692798589
END
BEGIN
	 0.0170345397,	 0.271641118
	 0.0322880858,	 0.260415607
	 0.0948867895,	 0.232089629
	 0.14550677,	 0.231033747
	 0.234893366,	 0.22107904
	 0.366024553,	 0.12810994
	 0.383260292,	-0.0951320484
	 0.0505010715,	-0.184762966
	-0.0190457393,	-0.144740903
	-0.0313586808,	-0.14258868
	-0.158269581,	-0.0748380041
	-0.138565143,	 0.0155638359
	-0.132452222,	 0.0262696854
	-0.10289836,	 0.105459486
END
BEGIN
	 0.00615030541,	-0.2741624
	-0.00985293378,	-0.266673883
	-0.0853095443,	-0.25518287
	-0.151826953,	-0.256835689
	-0.25751596,	-0.237565562
	-0.393599705,	-0.122940582
	-0.39267715,	 0.115671513
	-0.0447367533,	 0.17615629
	 0.00455236182,	 0.115797131
	 0.00776023014,	 0.108316689
	-0.00269896375,	 0.121622263
	 0.0648794265,	 0.152302823
	 0.0858274364,	 0.145574281
	 0.125370041,	 0.0596940249
END
BEGIN
	-0.00724660543,	 0.0202893955
	-0.00567982602,	 0.021004186
	 0.00504498276,	 0.0254947173
	 0.0157256239,	 0.0256957537
	 0.0290978439,	 0.0196492151
	 0.0397701887,	 0.00162095781
	 0.0305476761,	-0.0226171262
	-0.00636091797,	-0.0170646801
	-0.01758074,	-0.0121062129
	-0.0218825167,	-0.0112953943
	-0.0561580005,	 0.0513267598
	 0.0013896023,	 0.0822154296
	 0.0126332766,	 0.079371986
	 0.0429713269,	 0.0692798589
END
BEGIN
	-0.669456575,	 0.427693409
	-0.64536301,	 0.420368886
	-0.551580462,	 0.313255112
	-0.563603872,	 0.219050014
	-0.626573485,	 0.159436968
	-0.698391318,	 0.149336808
	-0.754849965,	 0.171865809
	-0.804622001,	 0.297192406
	-0.747142938,	 0.387944041
	-0.722646796,	 0.39975301
	-0.611154018,	 0.210939734
	-0.826156929,	 0.224669078
	-0.850258341,	 0.264421287
	-0.849623871,	 0.427964106
END
BEGIN
	-0.371823786,	-0.201703036
	-0.405884289,	-0.180343238
	-0.535458651,	 0.0361547444
	-0.504937713,	 0.21803835
	-0.384806145,	 0.347752439
	-0.24251761,	 0.386162271
	-0.146462885,	 0.361188383
	-0.0175468173,	 0.332429242
	 0.09985508,	 0.342964925
	 0.136763923,	 0.34685786
	 0.453783887,	 0.0304539864
	 0.164110068,	-0.163566624
	 0.105534008,	-0.14123116
	 0.0168218521,	 0.00569112227
END
BEGIN
	-0.322869135,	-0.162216072
	-0.349521983,	-0.147507915
	-0.460139763,	 0.0125286996
	-0.451251111,	 0.152125857
	-0.382593121,	 0.261316671
	-0.297638187,	 0.328948951
	-0.201252339,	 0.369732548
	-0.00298150535,	 0.32160123
	 0.0879331795,	 0.299382154
	 0.112869665,	 0.298303184
	 0.325938624,	 0.101533219
	 0.178731754,	-0.0371868136
	 0.146852828,	-0.0342638243
	 0.0611486427,	 0.00809590723
END
BEGIN
	 0.0170345397,	 0.271641118
	 0.0322880858,	 0.260415607
	 0.0948867895,	 0.232089629
	 0.14550677,	 0.231033747
	 0.234893366,	 0.22107904
	 0.366024553,	 0.12810994
	 0.383260292,	-0.0951320484
	 0.0505010715,	-0.184762966
	-0.0190457393,	-0.144740903
	-0.0313586808,	-0.14258868
	-0.158269581,	-0.0748380041
	-0.138565143,	 0.0155638359
	-0.132452222,	 0.0262696854
	-0.10289836,	 0.105459486
END
BEGIN
	-0.371823786,	-0.201703036
	-0.405884289,	-0.180343238
	-0.535458651,	 0.0361547444
	-0.504937713,	 0.21803835
	-0.384806145,	 0.347752439
	-0.24251761,	 0.386162271
	-0.146462885,	 0.361188383
	-0.0175468173,	 0.332429242
	 0.09985508,	 0.342964925
	 0.136763923,	 0.34685786
	 0.453783887,	 0.0304539864
	 0.164110068,	-0.163566624
	 0.105534008,	-0.14123116
	 0.0168218521,	 0.00569112227
END
BEGIN
	-0.39859583,	 0.412367959
	-0.347741195,	 0.423279669
	-0.0839059562,	 0.29335602
	-0.0280570812,	 0.120696972
	-0.0350580878,	-0.00813480161
	 0.00518090751,	-0.144616864
	-0.0591584007,	-0.427037266
	-0.74063762,	-0.369300431
	-0.827278439,	-0.011609711
	-0.80431834,	 0.0682643152
	-0.175252791,	 0.138468257
	-0.296077813,	-0.19511198
	-0.331236323,	-0.191068743
	-0.269940008,	-0.303408091
END
BEGIN
	 0.365523372,	 0.333287683
	 0.411478163,	 0.289011903
	 0.556868613,	-0.0523928657
	 0.477298023,	-0.32288121
	 0.225224174,	-0.516908926
	-0.133148035,	-0.485907732
	-0.30578919,	-0.170011154
	 0.0122435733,	 0.029785132
	 0.0599658106,	-0.00557483453
	 0.0724143898,	-0.00578710868
	 0.308573928,	-0.242403968
	-0.01557,	-0.581850736
	-0.143187463,	-0.590685786
	-0.613261286,	-0.174223759
END
BEGIN
	 0.00615030541,	-0.2741624
	-0.00985293378,	-0.266673883
	-0.0853095443,	-0.25518287
	-0.151826953,	-0.256835689
	-0.25751596,	-0.237565562
	-0.393599705,	-0.122940582
	-0.39267715,	 0.115671513
	-0.0447367533,	 0.17615629
	 0.00455236182,	 0.115797131
	 0.00776023014,	 0.108316689
	-0.00269896375,	 0.121622263
	 0.0648794265,	 0.152302823
	 0.0858274364,	 0.145574281
	 0.125370041,	 0.0596940249
END
BEGIN
	-0.322869135,	-0.162216072
	-0.349521983,	-0.147507915
	-0.460139763,	 0.0125286996
	-0.451251111,	 0.152125857
	-0.382593121,	 0.261316671
	-0.297638187,	 0.328948951
	-0.201252339,	 0.369732548
	-0.00298150535,	 0.32160123
	 0.0879331795,	 0.299382154
	 0.112869665,	 0.298303184
	 0.325938624,	 0.101533219
	 0.178731754,	-0.0371868136
	 0.146852828,	-0.0342638243
	 0.0611486427,	 0.00809590723
END
BEGIN
	 0.365523372,	 0.333287683
	 0.411478163,	 0.289011903
	 0.556868613,	-0.0523928657
	 0.477298023,	-0.32288121
	 0.225224174,	-0.516908926
	-0.133148035,	-0.485907732
	-0.30578919,	-0.170011154
	 0.0122435733,	 0.029785132
	 0.0599658106,	-0.00557483453
	 0.0724143898,	-0.00578710868
	 0.308573928,	-0.242403968
	-0.01557,	-0.581850736
	-0.143187463,	-0.590685786
	-0.613261286,	-0.174223759
END
BEGIN
	-0.544932194,	 0.32819092
	-0.513855199,	 0.344193613
	-0.327783556,	 0.309564797
	-0.253225077,	 0.225541515
	-0.186802586,	 0.145224302
	-0.0777304614,	-0.0157358405
	-0.145660718,	-0.341281406
	-0.806663321,	-0.254059296
	-0.871893992,	 0.0500547393
	-0.858606833,	 0.111165084
	-0.514957377,	 0.332509786
	-0.345493334,	 0.269354746
	-0.285235105,	 0.255384174
	-0.0521797871,	-0.183944366
END
BEGIN
	-0.883968357,	 0.107785923
	-0.88941416,	 0.126894543
	-0.880027789,	 0.206828839
	-0.847636259,	 0.244014816
	-0.786743566,	 0.260968746
	-0.70726456,	 0.212279024
	-0.717851052,	 0.0882752904
	-0.928740096,	 0.137746262
	-0.938246771,	 0.232808296
	-0.935308675,	 0.248519598
	-0.899554585,	 0.31204445
	-0.890486117,	 0.33400271
	-0.887688827,	 0.341619541
	-0.868214484,	 0.383711161
END
BEGIN
	-0.00724660543,	 0.0202893955
	-0.00567982602,	 0.021004186
	 0.00504498276,	 0.0254947173
	 0.0157256239,	 0.0256957537
	 0.0290978439,	 0.0196492151
	 0.0397701887,	 0.00162095781
	 0.0305476761,	-0.0226171262
	-0.00636091797,	-0.0170646801
	-0.01758074,	-0.0121062129
	-0.0218825167,	-0.0112953943
	-0.0561580005,	 0.0513267598
	 0.0013896023,	 0.0822154296
	 0.0126332766,	 0.079371986
	 0.0429713269,	 0.0692798589
END
BEGIN
	 0.0170345397,	 0.271641118
	 0.0322880858,	 0.260415607
	 0.0948867895,	 0.232089629
	 0.14550677,	 0.231033747
	 0.234893366,	 0.22107904
	 0.366024553,	 0.12810994
	 0.383260292,	-0.0951320484
	 0.0505010715,	-0.184762966
	-0.0190457393,	-0.144740903
	-0.0313586808,	-0.14258868
	-0.158269581,	-0.0748380041
	-0.138565143,	 0.0155638359
	-0.132452222,	 0.0262696854
	-0.10289836,	 0.105459486
END
BEGIN
	 0.00615030541,	-0.2741624
	-0.00985293378,	-0.266673883
	-0.0853095443,	-0.25518287
	-0.151826953,	-0.256835689
	-0.25751596,	-0.237565562
	-0.393599705,	-0.122940582
	-0.39267715,	 0.115671513
	-0.0447367533,	 0.17615629
	 0.00455236182,	 0.115797131
	 0.00776023014,	 0.108316689
	-0.00269896375,	 0.121622263
	 0.0648794265,	 0.152302823
	 0.0858274364,	 0.145574281
	 0.125370041,	 0.0596940249
END
BEGIN
	-0.00724660543,	 0.0202893955
	-0.00567982602,	 0.021004186
	 0.00504498276,	 0.0254947173
	 0.0157256239,	 0.0256957537
	 0.0290978439,	 0.0196492151
	 0.0397701887,	 0.00162095781
	 0.0305476761,	-0.0226171262
	-0.00636091797,	-0.0170646801
	-0.01758074,	-0.0121062129
	-0.0218825167,	-0.0112953943
	-0.0561580005,	 0.0513267598
	 0.0013896023,	 0.0822154296
	 0.0126332766,	 0.079371986
	 0.0429713269,	 0.0692798589
END
BEGIN
	-0.669456575,	 0.427693409
	-0.64536301,	 0.420368886
	-0.551580462,	 0.313255112
	-0.563603872,	 0.219050014
	-0.626573485,	 0.159436968
	-0.698391318,	 0.149336808
	-0.754849965,	 0.171865809
	-0.804622001,	 0.297192406
	-0.747142938,	 0.387944041
	-0.722646796,	 0.39975301
	-0.611154018,	 0.210939734
	-0.826156929,	 0.224669078
	-0.850258341,	 0.264421287
	-0.849623871,	 0.427964106
END
BEGIN
	-0.371823786,	-0.201703036
	-0.405884289,	-0.180343238
	-0.535458651,	 0.0361547444
	-0.504937713,	 0.21803835
	-0.384806145,	 0.347752439
	-0.24251761,	 0.386162271
	-0.146462885,	 0.361188383
	-0.0175468173,	 0.332429242
	 0.09985508,	 0.342964925
	 0.136763923,	 0.34685786
	 0.453783887,	 0.0304539864
	 0.164110068,	-0.163566624
	 0.105534008,	-0.14123116
	 0.0168218521,	 0.00569112227
END
BEGIN
	-0.322869135,	-0.162216072
	-0.349521983,	-0.147507915
	-0.460139763,	 0.0125286996
	-0.451251111,	 0.152125857
	-0.382593121,	 0.261316671
	-0.297638187,	 0.328948951
	-0.201252339,	 0.369732548
	-0.00298150535,	 0.32160123
	 0.0879331795,	 0.299382154
	 0.112869665,	 0.298303184
	 0.325938624,	 0.101533219
	 0.178731754,	-0.0371868136
	 0.146852828,	-0.0342638243
	 0.0611486427,	 0.00809590723
END
BEGIN
	 0.0170345397,	 0.271641118
	 0.0322880858,	 0.260415607
	 0.0948867895,	 0.232089629
	 0.14550677,	 0.231033747
	 0.234893366,	 0.22107904
	 0.366024553,	 0.12810994
	 0.383260292,	-0.0951320484
	 0.0505010715,	-0.184762966
	-0.0190457393,	-0.144740903
	-0.0313586808,	-0.14258868
	-0.158269581,	-0.0748380041
	-0.138565143,	 0.0155638359
	-0.132452222,	 0.0262696854
	-0.10289836,	 0.105459486
END
BEGIN
	-0.371823786,	-0.201703036
	-0.405884289,	-0.180343238
	-0.535458651,	 0.0361547444
	-0.504937713,	 0.21803835
	-0.384806145,	 0.347752439
	-0.24251761,	 0.386162271
	-0.146462885,	 0.361188383
	-0.0175468173,	 0.332429242
	 0.09985508,	 0.342964925
	 0.136763923,	 0.34685786
	 0.453783887,	 0.0304539864
	 0.164110068,	-0.163566624
	 0.105534008,	-0.14123116
	 0.0168218521,	 0.00569112227
END
BEGIN
	-0.39859583,	 0.412367959
	-0.347741195,	 0.423279669
	-0.0839059562,	 0.29335602
	-0.0280570812,	 0.120696972
	-0.0350580878,	-0.00813480161
	 0.00518090751,	-0.144616864
	-0.0591584007,	-0.427037266
	-0.74063762,	-0.369300431
	-0.827278439,	-0.011609711
	-0.80431834,	 0.0682643152
	-0.175252791,	 0.138468257
	-0.296077813,	-0.19511198
	-0.331236323,	-0.191068743
	-0.269940008,	-0.303408091
END
BEGIN
	 0.365523372,	 0.333287683
	 0.411478163,	 0.289011903
	 0.556868613,	-0.0523928657
	 0.477298023,	-0.32288121
	 0.225224174,	-0.516908926
	-0.133148035,	-0.485907732
	-0.30578919,	-0.170011154
	 0.0122435733,	 0.029785132
	 0.0599658106,	-0.00557483453
	 0.0724143898,	-0.00578710868
	 0.308573928,	-0.242403968
	-0.01557,	-0.581850736
	-0.143187463,	-0.590685786
	-0.613261286,	-0.174223759
END
BEGIN
	 0.00615030541,	-0.2741624
	-0.00985293378,	-0.266673883
	-0.0853095443,	-0.25518287
	-0.151826953,	-0.256835689
	-0.25751596,	-0.237565562
	-0.393599705,	-0.122940582
	-0.39267715,	 0.115671513
	-0.0447367533,	 0.17615629
	 0.00455236182,	 0.115797131
	 0.00776023014,	 0.108316689
	-0.00269896375,	 0.121622263
	 0.0648794265,	 0.152302823
	 0.0858274364,	 0.145574281
	 0.125370041,	 0.0596940249
END
BEGIN
	-0.322869135,	-0.162216072
	-0.349521983,	-0.147507915
	-0.460139763,	 0.0125286996
	-0.451251111,	 0.152125857
	-0.382593121,	 0.261316671
	-0.297638187,	 0.328948951
	-0.201252339,	 0.369732548
	-0.00298150535,	 0.32160123
	 0.0879331795,	 0.299382154
	 0.112869665,	 0.298303184
	 0.325938624,	 0.101533219
	 0.178731754,	-0.0371868136
	 0.146852828,	-0.0342638243
	 0.0611486427,	 0.00809590723
END
BEGIN
	 0.365523372,	 0.333287683
	 0.411478163,	 0.289011903
	 0.556868613,	-0.0523928657
	 0.477298023,	-0.32288121
	 0.225224174,	-0.516908926
	-0.133148035,	-0.485907732
	-0.30578919,	-0.170011154
	 0.0122435733,	 0.029785132
	 0.0599658106,	-0.00557483453
	 0.0724143898,	-0.00578710868
	 0.308573928,	-0.242403968
	-0.01557,	-0.581850736
	-0.143187463,	-0.590685786
	-0.613261286,	-0.174223759
END
BEGIN
	-0.544932194,	 0.32819092
	-0.513855199,	 0.344193613
	-0.327783556,	 0.309564797
	-0.253225077,	 0.225541515
	-0.186802586,	 0.145224302
	-0.0777304614,	-0.0157358405
	-0.145660718,	-0.341281406
	-0.806663321,	-0.254059296
	-0.871893992,	 0.0500547393
	-0.858606833,	 0.111165084
	-0.514957377,	 0.332509786
	-0.345493334,	 0.269354746
	-0.285235105,	 0.255384174
	-0.0521797871,	-0.183944366
END
BEGIN
	-0.415325504,	 0.369114099
	-0.405343809,	 0.434317858
	-0.241097007,	 0.626211988
	-0.106020901,	 0.639851123
	 0.0229509303,	 0.568586642
	 0.0869369369,	 0.397476647
	-0.0238600779,	 0.188024023
	-0.512105928,	 0.534466764
	-0.315345043,	 0.821403386
	-0.267294144,	 0.84763036
	-0.0277750387,	 0.867936759
	 0.0200383522,	 0.842171488
	 0.0314034906,	 0.846563498
	 0.128357196,	 0.864726621
END
BEGIN
	 0.0164004656,	 0.0430629677
	 0.020194506,	 0.0410253271
	 0.0385037038,	 0.0308794062
	 0.0516929461,	 0.0206448409
	 0.0645137013,	 0.000902363769
	 0.0666689206,	-0.0321246315
	 0.0416613859,	-0.0673149144
	-0.0457747633,	-0.0252721961
	-0.0487284295,	 0.0177051678
	-0.0500374678,	 0.0270741555
	-0.00650807681,	 0.151039203
	 0.16282968,	 0.127101861
	 0.183307891,	 0.0876040654
	 0.17121361,	-0.0341284488
END
BEGIN
	 0.125396249,	 0.49819519
	 0.167941295,	 0.469007965
	 0.315203116,	 0.332901399
	 0.38904813,	 0.25316443
	 0.466286138,	 0.15136537
	 0.530001307,	-0.00605904674
	 0.505662599,	-0.228335375
	-0.00952247722,	-0.359196175
	-0.136415827,	-0.215076225
	-0.152544682,	-0.195534862
	-0.279072788,	-0.0389854909
	-0.222393562,	 0.139445237
	-0.188570587,	 0.159796867
	-0.044940221,	 0.218483865
END
BEGIN
	-0.0888941945,	-0.47643543
	-0.128868139,	-0.45335786
	-0.275251484,	-0.348374737
	-0.359454196,	-0.287212712
	-0.458102215,	-0.198712085
	-0.551541861,	-0.039236298
	-0.548719578,	 0.207255212
	-0.000848354294,	 0.368386029
	 0.108780268,	 0.204547127
	 0.114605497,	 0.183025054
	 0.114682796,	 0.127292231
	 0.179763559,	 0.139475184
	 0.206373217,	 0.121001149
	 0.197653139,	-0.0284451008
END
BEGIN
	 0.0164004656,	 0.0430629677
	 0.020194506,	 0.0410253271
	 0.0385037038,	 0.0308794062
	 0.0516929461,	 0.0206448409
	 0.0645137013,	 0.000902363769
	 0.0666689206,	-0.0321246315
	 0.0416613859,	-0.0673149144
	-0.0457747633,	-0.0252721961
	-0.0487284295,	 0.0177051678
	-0.0500374678,	 0.0270741555
	-0.00650807681,	 0.151039203
	 0.16282968,	 0.127101861
	 0.183307891,	 0.0876040654
	 0.17121361,	-0.0341284488
END
BEGIN
	 0.377936653,	 0.591378719
	 0.387104946,	 0.558598677
	 0.366317895,	 0.379272173
	 0.286798892,	 0.288799779
	 0.166912623,	 0.251230022
	 0.0464442521,	 0.286446188
	-0.03098436,	 0.378282186
	 0.0564913761,	 0.649609773
	 0.260895312,	 0.662132921
	 0.298133879,	 0.63846629
	 0.234378241,	 0.320155312
	-0.0920068923,	 0.543846614
	-0.0755415982,	 0.657891751
	 0.23106686,	 0.860689665
END
BEGIN
	-0.484660161,	 0.000906551054
	-0.499389529,	 0.0296200632
	-0.53748466,	 0.222286553
	-0.502976644,	 0.369156176
	-0.401867855,	 0.506550792
	-0.245858636,	 0.589096917
	-0.0843966369,	 0.594195002
	 0.19181962,	 0.446943059
	 0.329032786,	 0.319156947
	 0.358727195,	 0.291134083
	 0.52465704,	-0.0825510039
	 0.179744036,	-0.313003996
	 0.0898475758,	-0.266564529
	 0.0377266728,	-0.0281002814
END
BEGIN
	-0.434471458,	 0.0224809434
	-0.444486252,	 0.0444914357
	-0.475965292,	 0.193672077
	-0.456564132,	 0.311069223
	-0.389958049,	 0.42880899
	-0.279260109,	 0.520075007
	-0.141578276,	 0.567594698
	 0.19148715,	 0.436995073
	 0.293233566,	 0.289091359
	 0.310998966,	 0.263502061
	 0.427647167,	 0.0181427172
	 0.252458004,	-0.180547178
	 0.189529645,	-0.176126596
	 0.0552393354,	-0.0469579925
END
BEGIN
	 0.125396249,	 0.49819519
	 0.167941295,	 0.469007965
	 0.315203116,	 0.332901399
	 0.38904813,	 0.25316443
	 0.466286138,	 0.15136537
	 0.530001307,	-0.00605904674
	 0.505662599,	-0.228335375
	-0.00952247722,	-0.359196175
	-0.136415827,	-0.215076225
	-0.152544682,	-0.195534862
	-0.279072788,	-0.0389854909
	-0.222393562,	 0.139445237
	-0.188570587,	 0.159796867
	-0.044940221,	 0.218483865
END
BEGIN
	-0.484660161,	 0.000906551054
	-0.499389529,	 0.0296200632
	-0.53748466,	 0.222286553
	-0.502976644,	 0.369156176
	-0.401867855,	 0.506550792
	-0.245858636,	 0.589096917
	-0.0843966369,	 0.594195002
	 0.19181962,	 0.446943059
	 0.329032786,	 0.319156947
	 0.358727195,	 0.291134083
	 0.52465704,	-0.0825510039
	 0.179744036,	-0.313003996
	 0.0898475758,	-0.266564529
	 0.0377266728,	-0.0281002814
END
BEGIN
	-0.444355134,	 0.277615448
	-0.436001515,	 0.291564519
	-0.307691324,	 0.326309566
	-0.19297282,	 0.284147694
	-0.0871836504,	 0.180752317
	-0.0203716903,	 0.0211734315
	-0.0295817545,	-0.183399493
	-0.53014345,	-0.407812485
	-0.726462959,	-0.174017682
	-0.73253499,	-0.116751798
	-0.446386596,	 0.133691737
	-0.302544435,	-0.0954979102
	-0.323993015,	-0.126699974
	-0.252935721,	-0.277018393
END
BEGIN
	 0.0821931762,	 0.288601866
	 0.120185737,	 0.276240648
	 0.265862683,	 0.158064177
	 0.307848168,	 0.0448568076
	 0.286563375,	-0.0850791615
	 0.185216775,	-0.179449781
	 0.0551141648,	-0.168250092
	 0.0896712997,	-0.042324238
	 0.100472005,	-0.111310394
	 0.0975258696,	-0.123063328
	 0.130741539,	-0.234832201
	-0.000787481538,	-0.49776717
	-0.109036499,	-0.536935565
	-0.597786128,	-0.196660604
END
BEGIN
	-0.0888941945,	-0.47643543
	-0.128868139,	-0.45335786
	-0.275251484,	-0.348374737
	-0.359454196,	-0.287212712
	-0.458102215,	-0.198712085
	-0.551541861,	-0.039236298
	-0.548719578,	 0.207255212
	-0.000848354294,	 0.368386029
	 0.108780268,	 0.204547127
	 0.114605497,	 0.183025054
	 0.114682796,	 0.127292231
	 0.179763559,	 0.139475184
	 0.206373217,	 0.121001149
	 0.197653139,	-0.0284451008
END
BEGIN
	-0.434471458,	 0.0224809434
	-0.444486252,	 0.0444914357
	-0.475965292,	 0.193672077
