CITIFILE A.01.01
#Momentum: B.12.00.024 (*) built: Jan 14 2016 
#Momentum Date and Time: Sat Nov 18 16:10:54 2017

NAME PortSet1/TwoP0_Dsolver_data/first_odd_mode_is_1/most_even_mode_is_1/PMLG4/LS0


CONSTANT NBR_OF_PORTS 4

VAR freq MAG 5

DATA GAMMA_1[1] RI
DATA Z0_1[1,1] RI
DATA LAMBADAI_1[1,1] RI
DATA Zcir_1[1,1] RI
DATA Ycir_1[1,1] RI

VAR_LIST_BEGIN
	 2000000000
	 2020000000
	 2040000000
	 2060000000
	 3000000000
VAR_LIST_END

BEGIN
	 0.8206455661,	 84.5346898
	 0.828894631,	 85.37483244
	 0.8371440503,	 86.21492438
	 0.8453938226,	 87.05496611
	 1.2334614736541165 ,	 126.48802164314574 
END
BEGIN
	 9.0383816346672212 ,	 0.087739539810636841 
	 9.038935039570017 ,	 0.087754771353725378 
	 9.0394830515082898 ,	 0.087769848695183811 
	 9.0400257729590212 ,	 0.087784774470189425 
	 9.0609741005625484 ,	 0.088355790646300253 
END
BEGIN
	 0.8206455661,	 84.5346898
	 0.828894631,	 85.37483244
	 0.8371440503,	 86.21492438
	 0.8453938226,	 87.05496611
	 1.2334614736541163 ,	 126.48802164314573 
END
BEGIN
	 7.24742709755366e-007 ,	 1.61408377289595e-010 
	 7.3215092255205e-007 ,	 1.61408424382856e-010 
	 7.39485940041279e-007 ,	 1.61408471940436e-010 
	 7.46897075364766e-007 ,	 1.6140851990247e-010 
	 1.09709036511668e-006 ,	 1.61411262062465e-010 
END
BEGIN
	 68.403237815140955 ,	 2.8033879346755472e-007 
	 69.086590137195856 ,	 2.8030453124842011e-007 
	 69.76993007900532 ,	 2.8027061072756811e-007 
	 70.4532576694521 ,	 2.8023702526010458e-007 
	 102.55621867385051 ,	 2.789468252045967e-007 
END
CITIFILE A.01.01
NAME PortSet2/TwoP0_Dsolver_data/first_odd_mode_is_1/most_even_mode_is_1/PMLG4/LS0

VAR freq MAG 5

DATA GAMMA_1[1] RI
DATA Z0_1[1,1] RI
DATA LAMBADAI_1[1,1] RI
DATA Zcir_1[1,1] RI
DATA Ycir_1[1,1] RI

VAR_LIST_BEGIN
	 2000000000
	 2020000000
	 2040000000
	 2060000000
	 3000000000
VAR_LIST_END

BEGIN
	 0.8206455661,	 84.5346898
	 0.828894631,	 85.37483244
	 0.8371440503,	 86.21492438
	 0.8453938226,	 87.05496611
	 1.2334614736541165 ,	 126.48802164314574 
END
BEGIN
	 9.0383816346672212 ,	 0.087739539810636841 
	 9.038935039570017 ,	 0.087754771353725378 
	 9.0394830515082898 ,	 0.087769848695183811 
	 9.0400257729590212 ,	 0.087784774470189425 
	 9.0609741005625484 ,	 0.088355790646300253 
END
BEGIN
	 0.8206455661,	 84.5346898
	 0.828894631,	 85.37483244
	 0.8371440503,	 86.21492438
	 0.8453938226,	 87.05496611
	 1.2334614736541163 ,	 126.48802164314573 
END
BEGIN
	 7.24742709755366e-007 ,	 1.61408377289595e-010 
	 7.3215092255205e-007 ,	 1.61408424382856e-010 
	 7.39485940041279e-007 ,	 1.61408471940436e-010 
	 7.46897075364766e-007 ,	 1.6140851990247e-010 
	 1.09709036511668e-006 ,	 1.61411262062465e-010 
END
BEGIN
	 68.403237815140955 ,	 2.8033879346755472e-007 
	 69.086590137195856 ,	 2.8030453124842011e-007 
	 69.76993007900532 ,	 2.8027061072756811e-007 
	 70.4532576694521 ,	 2.8023702526010458e-007 
	 102.55621867385051 ,	 2.789468252045967e-007 
END
CITIFILE A.01.01
NAME PortSet3/TwoP0_Dsolver_data/first_odd_mode_is_1/most_even_mode_is_1/PMLG4/LS0

VAR freq MAG 6

DATA GAMMA_3[1] RI
DATA GAMMA_3[2] RI
DATA Z0_3[1,1] RI
DATA Z0_3[1,2] RI
DATA Z0_3[2,1] RI
DATA Z0_3[2,2] RI
DATA LAMBADAI_3[1,1] RI
DATA LAMBADAI_3[1,2] RI
DATA LAMBADAI_3[2,1] RI
DATA LAMBADAI_3[2,2] RI
DATA Zcir_3[1,1] RI
DATA Zcir_3[1,2] RI
DATA Zcir_3[2,1] RI
DATA Zcir_3[2,2] RI
DATA Ycir_3[1,1] RI
DATA Ycir_3[1,2] RI
DATA Ycir_3[2,1] RI
DATA Ycir_3[2,2] RI

VAR_LIST_BEGIN
	 2000000000
	 2020000000
	 2040000000
	 2060000000
	 2736588741
	 3000000000
VAR_LIST_END

BEGIN
	 0.8206453574,	 84.53468729
	 0.8288944201,	 85.37482991
	 0.8371440409,	 86.21492624
	 0.8453938094,	 87.0549657
	 1.1246588422036454 ,	 115.44663052855066 
	 1.2334615285687598 ,	 126.48802426809183 
END
BEGIN
	 0.8206453574,	 84.53468729
	 0.8288944201,	 85.37482991
	 0.8371440409,	 86.21492624
	 0.8453938094,	 87.0549657
	 1.1246588422036454 ,	 115.44663052855066 
	 1.2334615285687598 ,	 126.48802426809183 
END
BEGIN
	 9.0383813659919454 ,	 0.087739556918944417 
	 9.0389347709270123 ,	 0.087754788462686584 
	 9.0394832471203248 ,	 0.087769853479212762 
	 9.0400257310767156 ,	 0.087784775029472698 
	 9.0558468899434192 ,	 0.088217024013046361 
	 9.0609742885947409 ,	 0.088355790379466198 
END
BEGIN
	 0 ,	 0 
	 0 ,	 0 
	 0 ,	 0 
	 0 ,	 0 
	 0 ,	 0 
	 0 ,	 0 
END
BEGIN
	 0 ,	 0 
	 0 ,	 0 
	 0 ,	 0 
	 0 ,	 0 
	 0 ,	 0 
	 0 ,	 0 
END
BEGIN
	 9.0383813659919152 ,	 0.087739556918945055 
	 9.0389347709269803 ,	 0.087754788462686278 
	 9.0394832471202928 ,	 0.087769853479212498 
	 9.0400257310767049 ,	 0.0877847750294726 
	 9.0558468899433606 ,	 0.088217024013045806 
	 9.0609742885947515 ,	 0.088355790379466295 
END
BEGIN
	 0.8206453574,	 84.53468729
	 0.8288944201,	 85.37482991
	 0.8371440409,	 86.21492624
	 0.8453938094,	 87.0549657
	 1.1246588422036454 ,	 115.44663052855066 
	 1.2334615285687598 ,	 126.48802426809183 
END
BEGIN
	 0 ,	 0 
	 0 ,	 0 
	 0 ,	 0 
	 0 ,	 0 
	 0 ,	 0 
	 0 ,	 0 
END
BEGIN
	 0 ,	 0 
	 0 ,	 0 
	 0 ,	 0 
	 0 ,	 0 
	 0 ,	 0 
	 0 ,	 0 
END
BEGIN
	 0.8206453574,	 84.53468729
	 0.8288944201,	 85.37482991
	 0.8371440409,	 86.21492624
	 0.8453938094,	 87.0549657
	 1.1246588422036454 ,	 115.44663052855064 
	 1.2334615285687598 ,	 126.48802426809183 
END
BEGIN
	 7.15894333373074e-007 ,	 1.61408367699791e-010 
	 7.23214320975246e-007 ,	 1.6140841479478e-010 
	 7.38165609217439e-007 ,	 1.61408478927545e-010 
	 7.46450632440471e-007 ,	 1.61408518407103e-010 
	 1.00894668639273e-006 ,	 1.61410399795642e-010 
	 1.09850074455145e-006 ,	 1.61411268761742e-010 
END
BEGIN
	 0 ,	 0 
	 0 ,	 0 
	 0 ,	 0 
	 0 ,	 0 
	 0 ,	 0 
	 0 ,	 0 
END
BEGIN
	 0 ,	 0 
	 0 ,	 0 
	 0 ,	 0 
	 0 ,	 0 
	 0 ,	 0 
	 0 ,	 0 
END
BEGIN
	 7.15894333157968e-007 ,	 1.61408367699791e-010 
	 7.23214320971777e-007 ,	 1.61408414794779e-010 
	 7.38165609203562e-007 ,	 1.61408478927545e-010 
	 7.46450632433532e-007 ,	 1.61408518407103e-010 
	 1.00894668638926e-006 ,	 1.61410399795641e-010 
	 1.09850074455839e-006 ,	 1.61411268761743e-010 
END
BEGIN
	 68.403237814957265 ,	 2.803387934665539e-007 
	 69.086590137007377 ,	 2.8030453124740108e-007 
	 69.769930079146221 ,	 2.8027061072832345e-007 
	 70.45325766942112 ,	 2.8023702525994005e-007 
	 93.562763251874529 ,	 2.7926144930395813e-007 
	 102.55621867423974 ,	 2.7894682520603988e-007 
END
BEGIN
	 0 ,	 0 
	 0 ,	 0 
	 0 ,	 0 
	 0 ,	 0 
	 0 ,	 0 
	 0 ,	 0 
END
BEGIN
	 0 ,	 0 
	 0 ,	 0 
	 0 ,	 0 
	 0 ,	 0 
	 0 ,	 0 
	 0 ,	 0 
END
BEGIN
	 68.403237814957876 ,	 2.803387934665548e-007 
	 69.086590137007647 ,	 2.8030453124740203e-007 
	 69.769930079146491 ,	 2.8027061072832445e-007 
	 70.453257669421205 ,	 2.8023702525994031e-007 
	 93.562763251875126 ,	 2.7926144930395993e-007 
	 102.5562186742396 ,	 2.7894682520603946e-007 
END
